# Hz S RI R 50
50000 1.0005292883942705 -3.626391624625905e-05
1040719 0.9994071274950047 -0.01318180360304715
2031438 0.9996215666217176 -0.025553310386617477
3022157 0.9987467256342293 -0.03786615190210407
4012876 0.9981032094202525 -0.04976531621192512
5003595 0.9973445431796528 -0.062254839890231436
5994314 0.996244310494718 -0.07441365856782114
6985033 0.9952850509795059 -0.08670518321464621
7975752 0.994130491043767 -0.09887854633570267
8966471 0.993017475196893 -0.11097569804786944
9957190 0.9913811200749265 -0.1233929468407172
10947910 0.9900484777773213 -0.13522615577847905
11938628 0.9877757667583054 -0.14774201154622574
12929347 0.9857392696826751 -0.15977244713910238
13920067 0.984063450711885 -0.17184306669567492
14910786 0.9816669591227861 -0.18400953123485483
15901505 0.9791397235421474 -0.1959200025391856
16892224 0.9765276476440726 -0.20755133819456476
17882942 0.9738607586406653 -0.2197380047797016
18873662 0.9707805906566207 -0.23114494981995093
19864380 0.9678399179978335 -0.24347977098612358
20855100 0.9646340147635605 -0.2547559173283423
21845820 0.9614644767593439 -0.2671088318520864
22836536 0.9580428564014228 -0.2782082475561405
23827256 0.9547020807770549 -0.2901497697996497
24817976 0.950885026507279 -0.30102742255233866
25808694 0.9465534643823699 -0.3125263307353337
26799414 0.9424981638918745 -0.32440470531776716
27790134 0.9384329182316028 -0.33520574395371733
28780852 0.9342060630935998 -0.34672040204235255
29771572 0.9294745039406439 -0.35780123998211216
30762290 0.9254678745211496 -0.36916165789538874
31753010 0.9205642258334698 -0.38019677902457333
32743730 0.9159242535631077 -0.39057388112081937
33734448 0.9112965042293724 -0.40156810730620823
34725168 0.906382711505149 -0.41253065760265983
35715884 0.9010853320396776 -0.42249195976642423
36706604 0.8949448492374935 -0.43336648035128306
37697324 0.8908920807080126 -0.4446883502371837
38688040 0.8848111067607505 -0.45396159897498084
39678760 0.8787764752105679 -0.46436462130750056
40669480 0.8733468467503908 -0.4743971044776265
41660200 0.8675415229299397 -0.48440899874457083
42650920 0.8611616659381708 -0.4946053266629252
43641640 0.8554760902370255 -0.5044717583357885
44632360 0.8492159580527059 -0.5145178354083682
45623072 0.8430519261878723 -0.523358459581949
46613792 0.8367370300421305 -0.5333282123397243
47604512 0.8299910578359992 -0.5427512011093223
48595232 0.8235671063563331 -0.5524311174255434
49585952 0.8170650784166249 -0.5617940465056358
50576668 0.8098649661360542 -0.5707125342080391
51567388 0.8036588644917078 -0.5798551605150979
52558108 0.7960731388655209 -0.5882697664029
53548828 0.7896779981500053 -0.5972970792248083
54539548 0.7827209204091051 -0.6062233052010318
55530268 0.7761858411936833 -0.6161314977020039
56520984 0.7676842602949054 -0.6228547332233246
57511704 0.7615297736801904 -0.6312290123002643
58502424 0.7530094957092026 -0.6405857475065937
59493144 0.7457985621228547 -0.6477560889922059
60483864 0.7381893165528588 -0.6565119991873005
61474580 0.7311583405506825 -0.6625057821576166
62465300 0.7233374863114801 -0.67241484795924
63456020 0.7164072477171586 -0.680308018117683
64446740 0.708274994663087 -0.6869927126794636
65437460 0.7010776392280338 -0.6946358144308121
66428172 0.6937899547154239 -0.7030716066395157
67418896 0.6842115418518957 -0.7083912361746743
68409616 0.6767273193612019 -0.7157120489834136
69400336 0.6675452742192379 -0.7226620477651057
70391056 0.6602538472045344 -0.7291559140878318
71381768 0.6527055411849249 -0.73645276392873
72372488 0.6451713510172333 -0.7435146016774042
73363208 0.6359674815688947 -0.7499713355740504
74353928 0.6288554132293395 -0.7569321645412496
75344648 0.6196685621900758 -0.762851926218996
76335368 0.6126657595948567 -0.7685930598763098
77326080 0.6040223038445085 -0.7752096093708696
78316800 0.5965247075922148 -0.7810776008721814
79307520 0.5875114500630783 -0.7860356720534699
80298240 0.5800861820765263 -0.791785313446588
81288960 0.5718913237131822 -0.7980565192043417
82279680 0.5631386553483803 -0.8029463146314905
83270400 0.554633858189915 -0.8084590842143496
84261120 0.5465507458923703 -0.8132635596985479
85251840 0.5373602308361557 -0.819211995210463
86242560 0.5284739214187973 -0.8224586449080383
87233280 0.5208977175681777 -0.8295016062290511
88224000 0.5118720996477513 -0.8333937331690138
89214720 0.5025400176994496 -0.8364240474934778
90205424 0.4952145038996757 -0.8436814822304253
91196144 0.4850400747278849 -0.8465050816997979
92186864 0.4768321056528995 -0.8520665927958603
93177584 0.46764992306050107 -0.8568634211121768
94168304 0.45971455410521833 -0.8612189876578382
95159024 0.45059837192570334 -0.866260626037444
96149744 0.4422594915094676 -0.8679473324429958
97140464 0.4344804451660822 -0.8723303458556554
98131184 0.4252886769325514 -0.8767170012164129
99121904 0.41811966065467077 -0.8801865617557504
100112619 0.4095166043108318 -0.8838221349128708
101103338 0.4017135678500317 -0.8873447666956433
102094057 0.39236764633029825 -0.8910786690160202
103084776 0.3844608092956494 -0.8942866149048992
104075495 0.3756228778231246 -0.8976974113819483
105066214 0.3670000527645128 -0.9012436020102303
106056933 0.3590588805014557 -0.9040312057552647
107047652 0.35009736857646323 -0.9070787444605835
108038371 0.3423670405644431 -0.9096809973128905
109029090 0.33347830674638024 -0.9129402925368957
110019809 0.32418108407445084 -0.9162165837968561
111010529 0.31626692489050984 -0.9182996721087956
112001247 0.30912237410726134 -0.9213254584527835
112991966 0.3002914555456215 -0.9236944219133707
113982686 0.29242115874058733 -0.92505296550733
114973405 0.28412454237024776 -0.9277542443877799
115964124 0.27526077576595426 -0.9296885616908477
116954843 0.2668234639221912 -0.9324913273310178
117945561 0.25922921655618597 -0.9335534267912164
118936281 0.25219557680265065 -0.9362992741154516
119926999 0.2434102355238079 -0.9376240075104488
120917719 0.2352492841575499 -0.9394585546679294
121908439 0.22789307236459797 -0.9407531368889458
122899155 0.21853393161856663 -0.9435165195238422
123889875 0.21086662697392244 -0.9447212322801337
124880595 0.20377871737970557 -0.9460453909781366
125871313 0.19588281260443685 -0.947821917434267
126862033 0.18807262606910974 -0.9486878358590802
127852753 0.17964081453508768 -0.9506029070635463
128843471 0.17273930242493918 -0.9515023677273579
129834191 0.1643942649411249 -0.9528154810340809
130824909 0.15702424052366198 -0.9535859873259191
131815629 0.14919275033362994 -0.9539453258011719
132806349 0.1404637155753619 -0.9539962794821
133797067 0.13362459982426902 -0.9554802532180987
134787787 0.12650948665859998 -0.9573827795566588
135778503 0.11739794161283815 -0.9572159438817517
136769223 0.11013242911183604 -0.9576417568138826
137759943 0.10264964127468035 -0.9588969585589047
138750659 0.09582032717361817 -0.9582315612082065
139741379 0.087557603381488 -0.959026084136101
140732099 0.08031191831890172 -0.9595543935478221
141722819 0.0738619324510673 -0.9599651756635037
142713539 0.066287202742452 -0.9609780071487587
143704259 0.05862366930730162 -0.9610735962474273
144694979 0.0515595458424286 -0.9605937127340034
145685691 0.04360680271541784 -0.9601194981308799
146676411 0.03761900839475501 -0.9609055804688306
147667131 0.03078997990856512 -0.9607268131226644
148657851 0.023006372023220655 -0.960950218649851
149648571 0.015663336756314223 -0.9613402734553896
150639287 0.008798312854479821 -0.961183770338732
151630007 0.0015726609038096142 -0.9599614284818561
152620727 -0.00469103265076414 -0.9599423651158471
153611447 -0.012155636838880513 -0.9596437906417887
154602167 -0.019672555928743583 -0.9589886927137709
155592887 -0.025994950804469685 -0.9588690296590424
156583603 -0.03259452717164371 -0.9586410131524737
157574323 -0.03978233611087399 -0.9578992923648866
158565043 -0.04686310766674633 -0.9578667127765282
159555763 -0.052350256712995265 -0.9567717744241083
160546483 -0.05962206322797173 -0.9558832285195717
161537199 -0.06703191597028565 -0.956425556950596
162527919 -0.07351228198198466 -0.9545141691328884
163518639 -0.07924014908313898 -0.9540706444277794
164509359 -0.085057121439962 -0.9540968494219909
165500079 -0.09078334484195225 -0.9529015679608306
166490791 -0.09820930059648679 -0.9504966692143898
167481515 -0.10533784007757174 -0.9504685664480487
168472235 -0.11074065974782628 -0.9498504255409687
169462955 -0.11770821609842165 -0.9481932982144822
170453675 -0.12435906848534543 -0.9466979177331442
171444387 -0.13073854056735792 -0.9461134723089482
172435107 -0.13676052444482184 -0.9443993467224815
173425827 -0.14172624836403888 -0.9441940886610254
174416547 -0.14845518029993487 -0.9415719400250151
175407267 -0.15500598870756527 -0.9423342022021586
176397987 -0.1602025939768085 -0.9407427909138485
177388699 -0.16628061383561132 -0.9394033154191527
178379419 -0.17265490574578693 -0.9383135534813418
179370139 -0.17807071566578203 -0.9364831996462978
180360859 -0.18496318232211 -0.9351295970337997
181351579 -0.19069939973339106 -0.934173646647224
182342299 -0.19665779994914942 -0.9321014137363512
183333019 -0.20263740637636335 -0.9319289179081555
184323739 -0.20841868321241905 -0.9293631717662418
185314459 -0.21341706168591557 -0.9285705672686295
186305179 -0.21930458380488566 -0.926163810444973
187295899 -0.22478235408846195 -0.9250753601384922
188286619 -0.23098077369132258 -0.9225552364485033
189277339 -0.2365487181280433 -0.9221145594797778
190268043 -0.24050175262671092 -0.9208047952744789
191258763 -0.24689852775843232 -0.9187899423409421
192249483 -0.2524724420321939 -0.9174351525058693
193240203 -0.25837142429406074 -0.9153394748604636
194230923 -0.2635448314670384 -0.912722357868073
195221643 -0.26969526380525133 -0.9119835100489986
196212363 -0.2749769949586404 -0.908955230603556
197203083 -0.2783537547992415 -0.9085698461029117
198193803 -0.28448657404042943 -0.9066851858358783
199184523 -0.28992516342055913 -0.9053177725206274
200175238 -0.29443629785897096 -0.9018216111633988
201165957 -0.2994846598307782 -0.9021386259642756
202156676 -0.3054240757864023 -0.8986177987485999
203147395 -0.3105086207124778 -0.8972072411850673
204138114 -0.31551192662111677 -0.895269007058827
205128833 -0.3207736968814758 -0.8928002405938015
206119552 -0.3252922859471532 -0.8915245576115557
207110271 -0.33043302830472554 -0.8894964568247239
208100990 -0.3362846038777551 -0.8876457198281368
209091709 -0.33914802728717774 -0.885484748039623
210082428 -0.345153488705411 -0.8847018862968963
211073148 -0.3483984870161204 -0.8818214578642154
212063866 -0.35491093908053534 -0.880418554382713
213054585 -0.35898356656089747 -0.8776294419988551
214045305 -0.3627584337284497 -0.8751405150392737
215036024 -0.3687854977346984 -0.8730574936946417
216026743 -0.37343644398051823 -0.8716684805364913
217017462 -0.37750575031116607 -0.8694175618666667
218008180 -0.3823354625020239 -0.867763657030414
218998900 -0.38679177227788947 -0.8652402256623226
219989618 -0.3923485812873304 -0.864216797034792
220980338 -0.3974806711306908 -0.8609057105103851
221971058 -0.4004586204639562 -0.8579784842334841
222961774 -0.40438127062340073 -0.8558037534045603
223952494 -0.40913035209050663 -0.8543244351046817
224943214 -0.4140583042434068 -0.8534971243041664
225933932 -0.41872134498216185 -0.8510486445673178
226924652 -0.423977161798496 -0.8487033697879209
227915372 -0.42734479593062374 -0.8458765093956492
228906090 -0.4312213571753405 -0.8436634892494347
229896810 -0.4356568827385172 -0.841339665831774
230887528 -0.439872017722494 -0.8391317712540025
231878248 -0.4435782122657135 -0.8375903922126138
232868968 -0.44784582960157787 -0.8343950906439693
233859686 -0.4519535363720724 -0.832002945202834
234850406 -0.457232728989313 -0.8297767793551074
235841122 -0.4607800480542593 -0.8271600354013999
236831842 -0.46497341835187433 -0.8252081120046492
237822562 -0.4689354197048467 -0.8227367660190796
238813278 -0.4724237828114576 -0.8205408959924813
239803998 -0.4750737874729229 -0.815439507065195
240794718 -0.47975567820159126 -0.8152280023261453
241785438 -0.4834224873416631 -0.8131385216968784
242776158 -0.4884645931014939 -0.8101769326338731
243766878 -0.4921451427809964 -0.808486618716426
244757598 -0.4950774787917081 -0.8065570336541685
245748310 -0.4993500027535259 -0.8029261621904721
246739030 -0.5031178792970555 -0.8016744085134044
247729750 -0.5072670734255909 -0.79896685573754
248720470 -0.509894891597674 -0.7957625592226624
249711190 -0.5145109926607757 -0.7929934087845514
250701906 -0.5192121811326474 -0.7907807818725534
251692626 -0.5215236221079691 -0.7895837447656356
252683346 -0.5249572805315881 -0.7869291453427584
253674066 -0.5276503914312276 -0.7844761116723631
254664786 -0.5313281980522327 -0.7824960565260857
255655506 -0.5361475233937787 -0.7801935154676793
256646222 -0.5375730987467234 -0.7774176064299673
257636942 -0.5416456406175776 -0.7746342370193311
258627662 -0.5455656919277846 -0.7714318209169856
259618382 -0.5492807852473588 -0.7679997028086454
260609102 -0.5527396224319469 -0.7666441280430488
261599818 -0.5555430950840908 -0.7640876434005724
262590538 -0.5585039244091328 -0.7608599404043072
263581258 -0.5611483051334697 -0.7584523472575929
264571978 -0.5654690139953198 -0.7558524170638012
265562698 -0.5688862856163581 -0.7540786851893282
266553410 -0.5724427809239679 -0.7519795605166408
267544134 -0.5750809558744392 -0.7510464629657159
268534854 -0.5789472228478355 -0.7456321966555777
269525574 -0.5814448691906009 -0.744549334985607
270516294 -0.5837572817170549 -0.7422797157966943
271507006 -0.5870753925014587 -0.738908972534472
272497726 -0.5901733670572286 -0.7359632196657926
273488446 -0.5931901085260137 -0.7342421563781122
274479166 -0.5959334662472132 -0.7315628795472734
275469886 -0.59817432318601 -0.7280677747430198
276460606 -0.6013995397182925 -0.726888302907524
277451318 -0.60511587602762 -0.7230729269143444
278442038 -0.6077761116707019 -0.7214730029448241
279432758 -0.6125884022299241 -0.7166237309372414
280423478 -0.6133512567183868 -0.7149035521743975
281414198 -0.615615117380557 -0.7132657802634969
282404918 -0.6192521767939851 -0.7107899424082453
283395638 -0.622283003521331 -0.7077706655519016
284386358 -0.623839897607389 -0.7052313348389851
285377078 -0.6285952163408753 -0.7035446931534343
286367798 -0.6297455421498206 -0.6996540379674013
287358518 -0.6338409966427653 -0.6976151129728476
288349238 -0.6358176316114854 -0.6950195879189902
289339958 -0.6402541498808656 -0.692085173652238
290330662 -0.6415679994158127 -0.6903512492431082
291321382 -0.645421549628494 -0.6871641563153371
292312102 -0.6478561252783974 -0.6841596894923223
293302822 -0.6490494443029059 -0.6814544613956947
294293542 -0.6520889333561583 -0.67878590311122
295284262 -0.6552277385308684 -0.6758541829956409
296274982 -0.656440378968349 -0.672364190744768
297265702 -0.6594047923678155 -0.6705333705997885
298256422 -0.6625244173903021 -0.6694104414451014
299247142 -0.6651179105118897 -0.6668073097320831
300237857 -0.6860475215841939 -0.6555338409926406
301228576 -0.6920105284491372 -0.6557385598014479
302219295 -0.6906869448486554 -0.6509103362325247
303210014 -0.6901852997457202 -0.6529744136223995
304200733 -0.6931601396425575 -0.6476358876510518
305191452 -0.6957234328349364 -0.6482103695109155
306182171 -0.6999708643050304 -0.643627032078269
307172890 -0.7058355990385462 -0.6411386482160452
308163609 -0.7019279412725642 -0.6393249534021628
309154328 -0.7044415367787404 -0.6403681942505933
310145047 -0.7078670374750934 -0.634430158356524
311135767 -0.7138626996708777 -0.629122536591783
312126485 -0.7116523222341852 -0.6303403572145793
313117204 -0.7173344793729732 -0.6241137201190514
314107924 -0.716564374398181 -0.6290026886714164
315098643 -0.716646679345513 -0.6209425333458254
316089362 -0.7216678533219243 -0.6159918157951593
317080081 -0.7244667273580222 -0.6153412176035182
318070799 -0.7262087225248621 -0.6167785244044985
319061519 -0.7304774832420464 -0.6167575420267324
320052237 -0.7317462514312272 -0.6107865095271354
321042957 -0.7325003552934507 -0.6092430353209872
322033677 -0.7350708264222086 -0.6045134143454113
323024393 -0.7349863482013014 -0.6043344312874833
324015113 -0.7387551644249573 -0.6014843123065189
325005833 -0.74330278855652 -0.5967274950169219
325996551 -0.7405416734546562 -0.5943901591720196
326987271 -0.7448724557845361 -0.5943125704165408
327977991 -0.7480051583942295 -0.5896894812763729
328968709 -0.7501903724944916 -0.583588684556577
329959429 -0.7508823261436778 -0.5822755166437562
330950147 -0.7503721428623362 -0.5860551351888427
331940867 -0.7541177110368379 -0.5814760231210175
332931587 -0.760603842542759 -0.5812456755063284
333922305 -0.7568097523892867 -0.5838189533068694
334913025 -0.7610653914942013 -0.5776121594163243
335903741 -0.7671045149431586 -0.5752060819099609
336894461 -0.7628150985459095 -0.5716852962893906
337885181 -0.7691596259223147 -0.5712041245764483
338875897 -0.768684443483 -0.5703931052962372
339866617 -0.7693816242756525 -0.5677868500117171
340857337 -0.7714727631471453 -0.5618593318648711
341848057 -0.770068952074216 -0.566196096814314
342838777 -0.7784334573989377 -0.560599976861491
343829497 -0.7750462853266014 -0.560238628829063
344820217 -0.7790784799482035 -0.5558761666190074
345810929 -0.7832956523642932 -0.5530170165085151
346801649 -0.7838448570798328 -0.547115077856861
347792369 -0.7864272782372322 -0.5491687225344372
348783089 -0.7801460363618784 -0.5460144204945722
349773809 -0.7907182026729996 -0.5400419035074956
350764525 -0.7916839252691463 -0.5399460392796365
351755245 -0.7924143796892906 -0.5426060207298946
352745965 -0.7904081079407855 -0.5355718017107719
353736685 -0.7932253063235103 -0.5324483869267016
354727405 -0.7956534224788246 -0.532827004713578
355718125 -0.800985140811184 -0.5263381456321485
356708841 -0.7968712224187657 -0.5234329676254271
357699561 -0.7996787510164496 -0.5241483577928845
358690281 -0.8042390853400091 -0.5260285435460267
359681001 -0.8070529880096795 -0.5223786650811256
360671721 -0.8061649858948307 -0.5190139943027477
361662437 -0.804401320144048 -0.5133152202259602
362653157 -0.8124820486433616 -0.5167426619371023
363643877 -0.8130917994039957 -0.5142210936086372
364634597 -0.8132432203198796 -0.5099750773139419
365625317 -0.8127183162861892 -0.5102130317715478
366616029 -0.8133878175738758 -0.5018625132307285
367606753 -0.8160787690809789 -0.5024581257588693
368597473 -0.8155510612266952 -0.496520167615792
369588193 -0.8194502599955046 -0.5042714607142985
370578913 -0.818058199746689 -0.498831895341238
371569625 -0.821111932808845 -0.4974904198811881
372560345 -0.8248543498414352 -0.4929783958093274
373551065 -0.8220958435851958 -0.4939630974882855
374541785 -0.8231399477240117 -0.4891718948316169
375532505 -0.825212290478434 -0.4892868487935936
376523225 -0.8260397742158564 -0.4888009604511948
377513937 -0.827160767053217 -0.48518174700499206
378504657 -0.8269212623674543 -0.483254900987314
379495377 -0.8290861648243729 -0.47967175961305436
380486097 -0.8282637622524085 -0.47626189068693703
381476817 -0.8323548738422051 -0.473459515581563
382467537 -0.8304690308607776 -0.47345397076660006
383458257 -0.8316765310373664 -0.47018869031509014
384448977 -0.8339559430463953 -0.4701085257450022
385439697 -0.8301476160491901 -0.46633879213778157
386430417 -0.8345414665092822 -0.46335607443472654
387421137 -0.8343342348341081 -0.46185003476385694
388411857 -0.839178769822166 -0.4589417985573948
389402577 -0.8355618726376174 -0.45591535927928045
390393281 -0.839104640669991 -0.4540428520183624
391384001 -0.8387259226721994 -0.4539594401763678
392374721 -0.839754719680108 -0.4494452564494188
393365441 -0.8401951505579347 -0.44783082666774143
394356161 -0.8416508988102527 -0.4448627054873262
395346881 -0.8418795583106446 -0.44152029588599395
396337601 -0.8414151062446334 -0.4403125594948731
397328321 -0.8450960122213867 -0.43943550157099137
398319041 -0.8452953169315466 -0.43508162723305444
399309761 -0.8443415106733179 -0.4346972937655885
