# Hz S RI R 50
50000 0.9989325929429729 0.0002700424892815243
1040719 0.998945760704293 -0.007214202996861127
2031438 0.9993324405665803 -0.014891199792599475
3022157 0.9986549253863788 -0.022110730490854106
4012876 0.9989113518150821 -0.02939491861292272
5003595 0.9981176410755772 -0.03718445653403242
5994314 0.9975813176340197 -0.04391165480242365
6985033 0.9975224836895352 -0.052021967478812964
7975752 0.9973992508776657 -0.05886782125882924
8966471 0.9965270079483362 -0.06563698206618718
9957190 0.996392108695175 -0.07342329855286989
10947910 0.9958378178191364 -0.079928903974296
11938628 0.9947996696935413 -0.0887944153125099
12929347 0.9943370794611917 -0.0949576996989077
13920067 0.9936340949039092 -0.10268499264305336
14910786 0.9926900266665935 -0.11025277059078606
15901505 0.9919517662047136 -0.11661138977256201
16892224 0.9907709151508867 -0.12517086476755734
17882942 0.9898041256924417 -0.1310714162236871
18873662 0.9890511081760839 -0.13840064174345657
19864380 0.9879298943151648 -0.146210952055598
20855100 0.9865736646458828 -0.15228257726655534
21845820 0.9851647217412679 -0.16212122978931515
22836536 0.9845058253448805 -0.16693483177436547
23827256 0.9834151530723938 -0.17486598467853176
24817976 0.9812806583592177 -0.18210932480051303
25808694 0.9799819031345666 -0.18825088280099173
26799414 0.9781340354755513 -0.19788021598941996
27790134 0.9773245578533526 -0.20234140676476958
28780852 0.9754014418676853 -0.21043311806738024
29771572 0.9735184372652759 -0.217907740752292
30762290 0.9725217150511186 -0.22379935788525734
31753010 0.9698623986903887 -0.23329450215576816
32743730 0.9690329285852893 -0.23754292514257477
33734448 0.9670886791072111 -0.245380880882302
34725168 0.9648371614555384 -0.25304135932023325
35715884 0.9635189876195183 -0.25794920966942336
36706604 0.9601068320060206 -0.2686286737919193
37697324 0.9603741006519058 -0.27246728027909894
38688040 0.9570379158668308 -0.27980230529067973
39678760 0.9545478532845738 -0.28763006764444105
40669480 0.9530536639375878 -0.2923051202168134
41660200 0.9493162585149137 -0.30293413579164985
42650920 0.9481020364794649 -0.3061991854461399
43641640 0.9463019308951394 -0.31448257533577667
44632360 0.9426951366474932 -0.32166209744058344
45623072 0.9402489506334284 -0.32500118524250626
46613792 0.9374357187496059 -0.33713483468887295
47604512 0.936555739322698 -0.3400737819787344
48595232 0.9329296840345268 -0.347653716470877
49585952 0.9310895262081119 -0.3554806216573741
50576668 0.9284950328011758 -0.3588800074149131
51567388 0.9237055604492761 -0.37077087624723065
52558108 0.9226749102715389 -0.3723607245817526
53548828 0.9195414516417011 -0.3803835690399832
54539548 0.9163792922184288 -0.3878513865193544
55530268 0.914442723441223 -0.39213073730795683
56520984 0.9094589177877865 -0.40242028463891755
57511704 0.9079036675254811 -0.4041361493855421
58502424 0.9039015717212076 -0.413005048779085
59493144 0.9008290056134145 -0.4197778015818713
60483864 0.8991044909563237 -0.4237390203569166
61474580 0.8928458195307183 -0.4336165941821405
62465300 0.892638893795347 -0.4366809898860168
63456020 0.8889726386659021 -0.4445457083075595
64446740 0.8855365536085579 -0.4507135824999007
65437460 0.88385405356186 -0.4544009378604991
66428172 0.8781266233159881 -0.46815321027488793
67418896 0.876003785161635 -0.46678296802356123
68409616 0.8714932156759555 -0.47396429695741155
69400336 0.8657401783972763 -0.4812819400471745
70391056 0.8651026997823722 -0.48405820125179905
71381768 0.8589291992889843 -0.4959883598776841
72372488 0.8594725835325383 -0.4966043520984462
73363208 0.8540544945791677 -0.5044389320290941
74353928 0.8503682149091827 -0.5109035115463149
75344648 0.8478383261371413 -0.51427643949577
76335368 0.8411413478778614 -0.525391764366516
77326080 0.8416425525072484 -0.526060908136156
78316800 0.8359678944061099 -0.5329987009275953
79307520 0.8309792602597316 -0.5394823972760954
80298240 0.8301356662291229 -0.5415252127880709
81288960 0.822676145635355 -0.5538876998645786
82279680 0.8219034944388549 -0.5529820920106259
83270400 0.8168578853575674 -0.5606774480833923
84261120 0.8133886647211365 -0.567286615202588
85251840 0.8103056700018986 -0.5685075467622144
86242560 0.7996462973809442 -0.5792977735304091
87233280 0.8013011672353323 -0.5804443526542244
88224000 0.7957169545195437 -0.5873321851288305
89214720 0.7899458728361074 -0.592697946448265
90205424 0.7898900064053995 -0.5965061606490376
91196144 0.7779733254037047 -0.6066805235152108
92186864 0.779676144579095 -0.6063268793844319
93177584 0.7730545259772331 -0.6136817652371934
94168304 0.7695931329887831 -0.6205049834924584
95159024 0.7672642149244087 -0.6224157330361006
96149744 0.756060595777929 -0.6318418726400978
97140464 0.7580211271027699 -0.6305456410420593
98131184 0.7518696562160448 -0.6388594335914699
99121904 0.7476670085681316 -0.6435597638849765
100112619 0.7393979327246941 -0.6526847529498112
101103338 0.740778541811656 -0.65095204011415
102094057 0.7318114478121651 -0.6608388936217988
103084776 0.7307131602300886 -0.6613479989154057
104075495 0.7271017281555069 -0.6655608432546187
105066214 0.7163597798496757 -0.6766064267382106
106056933 0.7179425002709903 -0.6747530623986789
107047652 0.7087700363686721 -0.6839720294739735
108038371 0.7077770741695326 -0.6853390909550124
109029090 0.7040494151954183 -0.6890002125151817
110019809 0.6923202000738871 -0.6999927647606594
111010529 0.6945479627519497 -0.6978855682594919
112001247 0.6855188180917337 -0.706802395859419
112991966 0.6837433647153195 -0.7089427113875159
113982686 0.6800720285411695 -0.710699992406866
114973405 0.6691908274188281 -0.7213925472551467
115964124 0.6706261220171935 -0.7190885979159469
116954843 0.66049908874573 -0.7289414704672588
117945561 0.659818814317068 -0.7292327728765936
118936281 0.656503961546346 -0.7314980547853217
119926999 0.6440255653761275 -0.7424131575140558
120917719 0.6477675348574967 -0.739848381041048
121908439 0.6365815724996406 -0.748024851937684
122899155 0.6355431592793949 -0.7500431622998366
123889875 0.6321777254068025 -0.7520638751438998
124880595 0.6198732616329802 -0.7616622126072028
125871313 0.6227143875696289 -0.7590634020400056
126862033 0.6117070771807657 -0.7680034288616888
127852753 0.6110316702437412 -0.7688651607556539
128843471 0.6083818413806092 -0.7707535455815868
129834191 0.5949820329842093 -0.7803936060771366
130824909 0.5983481637734627 -0.7778503887109135
131815629 0.5866129791850377 -0.7857061344781416
132806349 0.5857488623274363 -0.7872531463055945
133797067 0.5823454855025818 -0.7884068200859085
134787787 0.5696147300108279 -0.7976335394601305
135778503 0.573202671995466 -0.7951832403816146
136769223 0.5603214835816117 -0.8032304340148372
137759943 0.5606190724779606 -0.8036732222724182
138750659 0.558262778071414 -0.8052537260220698
139741379 0.5441899333021291 -0.8146523838978146
140732099 0.5479384253943483 -0.8109929531079791
141722819 0.5355776957196082 -0.8190898685282646
142713539 0.5346597157221898 -0.8192145114123738
143704259 0.5316449514799353 -0.8213793505472761
144694979 0.5176361322659733 -0.8292236306298895
145685691 0.522337915920918 -0.826979329320411
146676411 0.5114234711202497 -0.8340206266994792
147667131 0.5094372873994162 -0.8339056180624111
148657851 0.5075151821012762 -0.834807751631945
149648571 0.4911761892660262 -0.8437124484667943
150639287 0.4971993216231363 -0.84146535555969
151630007 0.48153901052360853 -0.8495881186250956
152620727 0.4859311342774622 -0.8468435511834249
153611447 0.4791871279675161 -0.850698942019268
154602167 0.47075292454733825 -0.8568084518979177
155592887 0.4715526603086558 -0.8547390914785714
156583603 0.45590400544621323 -0.8631421331105972
157574323 0.45954609817165754 -0.8603134956086275
158565043 0.4523414160421587 -0.863806645451087
159555763 0.44330416375633974 -0.8682153657692062
160546483 0.4450344163580627 -0.867223206769986
161537199 0.42781774367720493 -0.8746095336277283
162527919 0.4336238620433738 -0.8721810213530421
163518639 0.42769504182051327 -0.875410844672743
164509359 0.4177278385591558 -0.8804041413210191
165500079 0.420783354507705 -0.878641447090622
166490791 0.40321193124192084 -0.8851423472478372
167481515 0.4081350133848358 -0.8839007355747523
168472235 0.4021155330137134 -0.8866391305831772
169462955 0.3913986514973467 -0.8908109563250066
170453675 0.39345347708416334 -0.8893348808953769
171444387 0.3762119098547732 -0.8963627346732405
172435107 0.3810626886178525 -0.8938964953439074
173425827 0.37605139396882015 -0.8964012313778221
174416547 0.36451717752171475 -0.8996130613344826
175407267 0.3674508446971166 -0.8998212090738937
176397987 0.35099315068549064 -0.9060051971722448
177388699 0.35628361002487174 -0.9031748256138976
178379419 0.3499720329423996 -0.905770320922356
179370139 0.33870813332385247 -0.9084244093023417
180360859 0.3416455611634727 -0.908633436238028
181351579 0.3245862464398864 -0.9142369821948734
182342299 0.3300734650934093 -0.9116719542353261
183333019 0.324144260796478 -0.9152910877780098
184323739 0.31293850448262184 -0.9177593908653466
185314459 0.3169879538853437 -0.9173245822331068
186305179 0.29855294507647717 -0.9220607410995355
187295899 0.3046919994011636 -0.9204258353613907
188286619 0.2971822045977191 -0.9217903922631001
189277339 0.2870053123094061 -0.9252715737256272
190268043 0.2913465715466731 -0.9242699972782996
191258763 0.2733030841050138 -0.9295324215498177
192249483 0.27891091867587087 -0.9280551355759027
193240203 0.27269440751060287 -0.9297521557413834
194230923 0.26052600149629623 -0.9320438361840524
195221643 0.2640909604172663 -0.9317156996521384
196212363 0.24578764304016906 -0.9345798221180096
197203083 0.25394281012514547 -0.9332194193298552
198193803 0.24643632814157948 -0.935249538507529
199184523 0.23536608048619356 -0.9382980752109823
200175238 0.2373443582022945 -0.9354259704285451
201165957 0.23253142113220127 -0.9384074543246265
202156676 0.21877455049499103 -0.9408868907597352
203147395 0.2225866077956164 -0.9403342136300021
204138114 0.20475504654940876 -0.9441725886055543
205128833 0.21131026838055691 -0.9422522561777997
206119552 0.20553972069460305 -0.9432959032318512
207110271 0.19378068931859765 -0.9453656374647391
208100990 0.19713952350832997 -0.9452901814542404
209091709 0.18035658618484635 -0.947161466403806
210082428 0.1869864287722478 -0.947825264944063
211073148 0.18143790418376624 -0.9483503071361761
212063866 0.16879042469253844 -0.9503007525447791
213054585 0.17398791069670627 -0.9486361369815917
214045305 0.15608857237462004 -0.9507703739998484
215036024 0.16140409763564 -0.9498994709369067
216026743 0.1553553598581122 -0.9517144025466097
217017462 0.14422401093139336 -0.9525630241687465
218008180 0.14825564493258822 -0.9528099052904434
218998900 0.13000075449123025 -0.9549531929827739
219989618 0.13686950359803535 -0.9553061768214764
220980338 0.1301211359755885 -0.9550060112770897
221971058 0.1187451104451042 -0.9549297026406697
222961774 0.12264191497927798 -0.9550569620677646
223952494 0.10492356798856467 -0.9562571032549835
224943214 0.1126302198908418 -0.9575848702202353
225933932 0.10558722016580903 -0.9579413178179029
226924652 0.0935743081614721 -0.958993449795555
227915372 0.09841976206295004 -0.957791212964725
228906090 0.08083300599714423 -0.9586885795973126
229896810 0.08754566154989837 -0.9586022466300275
230887528 0.0810830557742613 -0.9592536457235656
231878248 0.07035344670861307 -0.9598853264679218
232868968 0.07490391553422024 -0.959255712367425
233859686 0.05582424141121991 -0.9600914416206436
234850406 0.06358142774576059 -0.9603370096974435
235841122 0.056701158030797505 -0.9604867586212011
236831842 0.045924644461444473 -0.9605707968364425
237822562 0.05103191011374979 -0.9608261490275442
238813278 0.03205627250386437 -0.9598821740340847
239803998 0.03867385468246527 -0.9609992466941225
240794718 0.033810795958633844 -0.9609336862454876
241785438 0.02157836200417071 -0.9611421549568891
242776158 0.025860163672258414 -0.9601641836932229
243766878 0.008731981334964377 -0.9603461139927416
244757598 0.016087965211287848 -0.9615588493248192
245748310 0.009217651460924702 -0.960045101753549
246739030 -0.0018760024606196437 -0.9609140485390312
247729750 0.0027842311051677923 -0.9614062051760439
248720470 -0.015083979141930187 -0.9597343482000713
249711190 -0.008770720412817548 -0.9594621084270538
250701906 -0.014551150701707897 -0.9603030803060385
251692626 -0.02518752404299777 -0.9603646487192334
252683346 -0.01925601797485301 -0.9598176942624939
253674066 -0.03775796016692471 -0.9591871208567188
254664786 -0.029727161615964153 -0.9598776440226691
255655506 -0.03697295993039366 -0.9596911810245564
256646222 -0.04630951141828334 -0.9580134779824352
257636942 -0.04185936889061816 -0.9579916123235578
258627662 -0.06110171528257949 -0.9569478701832175
259618382 -0.05426628101117221 -0.9572904532434527
260609102 -0.059367763863211305 -0.9556299716967679
261599818 -0.07059622429474162 -0.9561796465986055
262590538 -0.06621706578565364 -0.9553142920318655
263581258 -0.08380571119231736 -0.9531948113370319
264571978 -0.07574848216108293 -0.9545737341051989
265562698 -0.0817555030161418 -0.9547242299855707
266553410 -0.09306403743317523 -0.9542710512312664
267544134 -0.08817226369890703 -0.9535434918254081
268534854 -0.10625200501934497 -0.9512810064940819
269525574 -0.09723979485278834 -0.953307507234962
270516294 -0.10135334592487932 -0.9520347256193786
271507006 -0.11412244163585164 -0.9495342230890705
272497726 -0.1077666034742896 -0.9507467042572108
273488446 -0.12610176689094318 -0.9485309852012804
274479166 -0.11998585420036371 -0.9514180167523306
275469886 -0.12161333115622068 -0.9472687741692835
276460606 -0.1343007556338637 -0.9466836548901582
277451318 -0.12950456650033357 -0.9460396686857914
278442038 -0.14680129471699815 -0.9447521525378707
279432758 -0.14159978406056667 -0.9449839085772174
280423478 -0.14480274757850933 -0.9438397786607572
281414198 -0.15608857581160426 -0.9408812322353219
282404918 -0.1490478443415633 -0.944287676717859
283395638 -0.168203512844337 -0.9398975855496379
284386358 -0.15918709231592965 -0.9400302601390591
285377078 -0.16505792666162897 -0.9418210621680503
286367798 -0.17691635246352316 -0.9361296417374358
287358518 -0.17071375404077507 -0.9390788395093991
288349238 -0.1886916214033426 -0.9355746806617717
289339958 -0.18231965588362117 -0.9378039359970314
290330662 -0.18646149334180084 -0.9363882813800724
291321382 -0.19816188021827244 -0.9335095765439612
292312102 -0.19392206057979217 -0.9343584429162973
293302822 -0.20845411102778244 -0.9296716960018819
294293542 -0.20194941042001963 -0.9313439702013513
295284262 -0.20870430640766904 -0.9297955232971847
296274982 -0.21868584656707526 -0.9258738026523076
297265702 -0.21193476583534793 -0.9274014802280094
298256422 -0.22948156874592418 -0.9255380928565549
299247142 -0.22164747253065545 -0.9266137442614919
300237857 -0.2310890003347043 -0.9220356047781673
301228576 -0.25195261502393107 -0.9232966066799142
302219295 -0.23988800463795085 -0.9197072794633162
303210014 -0.24241675184013217 -0.9189173786736204
304200733 -0.24771478046370946 -0.9165550607872989
305191452 -0.2443260461956069 -0.9198809691534396
306182171 -0.2681983526019591 -0.9136748801015978
307172890 -0.2601030281315854 -0.9165652971400751
308163609 -0.26467624352802627 -0.9088316120708956
309154328 -0.2660496759477352 -0.9114639663490967
310145047 -0.2676075076205127 -0.910724074145845
311135767 -0.2907079565844616 -0.9063232255081064
312126485 -0.2726880997136409 -0.9113804689129779
313117204 -0.28924826819788746 -0.9042753068739704
314107924 -0.2817675521725816 -0.9117927178674486
315098643 -0.2837659405161633 -0.9047792837173146
316089362 -0.30595373654935376 -0.8966863628996796
317080081 -0.29518149615247447 -0.9023565107487493
318070799 -0.30297425382283705 -0.900547950830647
319061519 -0.30504111780882953 -0.9047569100170477
320052237 -0.30496710842260216 -0.9027301364731802
321042957 -0.3201964890148212 -0.8955286904881512
322033677 -0.3142649570382729 -0.8974315978972361
323024393 -0.32055134849758476 -0.8943103548457374
324015113 -0.32220961757555827 -0.8962291996585573
325005833 -0.3261483061682733 -0.8968295553068808
325996551 -0.33859384397620235 -0.8839076497354191
326987271 -0.326923462604789 -0.8922278980091497
327977991 -0.34315895523826967 -0.8860972149205142
328968709 -0.34101614059426305 -0.8816436230985705
329959429 -0.3365494800117822 -0.8822752133901394
330950147 -0.3582560565434442 -0.8795947406630227
331940867 -0.3474748691510357 -0.8860882556049846
332931587 -0.35898935613146704 -0.8821318990099877
333922305 -0.3544241567721397 -0.8835952933655625
334913025 -0.3561707960558472 -0.8829843445460418
335903741 -0.3764279819388055 -0.8800874517025857
336894461 -0.3647523930391964 -0.8788215379125108
337885181 -0.3743341143826843 -0.8775359221127736
338875897 -0.37694996792237984 -0.8776344575169394
339866617 -0.373054267206501 -0.8766833397815281
340857337 -0.38836694504213487 -0.8708717797616685
341848057 -0.3768061396784662 -0.875337257538366
342838777 -0.3890559260483024 -0.870638510991328
343829497 -0.3878497409156417 -0.8712954921986328
344820217 -0.39033263343513197 -0.8641819344050071
345810929 -0.4048133574764003 -0.8658068743915616
346801649 -0.3999633077280138 -0.8662618588372941
347792369 -0.4057723262785346 -0.8630936097293355
348783089 -0.4029561822384697 -0.8598103506562882
349773809 -0.4085716018450937 -0.8648936948219635
350764525 -0.42059314786162105 -0.8530705305753377
351755245 -0.41197862083278847 -0.8632070791689223
352745965 -0.421432187959343 -0.8553363437983988
353736685 -0.4226003600425622 -0.8543884772366646
354727405 -0.4206730554767043 -0.8586220582089241
355718125 -0.43872004951354665 -0.8469156968440648
356708841 -0.42922172800987934 -0.8500771006330375
357699561 -0.4388104011511376 -0.8479964445842945
358690281 -0.4381364760766975 -0.8504716471358871
359681001 -0.4376983859990167 -0.8535871552652707
360671721 -0.4516389777493472 -0.8411553335696412
361662437 -0.44221221410341177 -0.8436196115474526
362653157 -0.45260441392737516 -0.8455299444342019
363643877 -0.4531483335254847 -0.8414697720019741
364634597 -0.45458633504698814 -0.8509201877999928
365625317 -0.46590412339943005 -0.8329705547388999
366616029 -0.4611945388538701 -0.8428201420390384
367606753 -0.466540560893321 -0.8305880787683174
368597473 -0.46602810155169716 -0.8328447909969366
369588193 -0.4673756932078894 -0.8368236916652192
370578913 -0.48251282817263025 -0.8306420220816326
371569625 -0.46809820862088575 -0.8312950245601513
372560345 -0.4848181928913352 -0.8258347574010323
373551065 -0.4784842131341477 -0.8270855136153091
374541785 -0.47655037441947234 -0.8289320710738789
375532505 -0.49246538672390194 -0.8218908633186179
376523225 -0.481559161880179 -0.8261951659744569
377513937 -0.48990629239254063 -0.8195902995961588
378504657 -0.4920466122289885 -0.8182463259035901
379495377 -0.4901678819101563 -0.8202463385726044
380486097 -0.5055455446767065 -0.8089913431141857
381476817 -0.4989192974390321 -0.8141578000826475
382467537 -0.5002020503764363 -0.8089776774588213
383458257 -0.5047350640590763 -0.8088597767436418
384448977 -0.5031238656016322 -0.8138671117943677
385439697 -0.5117051540020063 -0.7983762900663582
386430417 -0.5065729010275902 -0.8032605912306642
387421137 -0.5156500573432096 -0.7997671387908856
388411857 -0.5176653109501763 -0.8007808816624091
389402577 -0.5123403696299221 -0.8005839097823103
390393281 -0.5293379432266349 -0.7904766715789907
391384001 -0.5124230528976771 -0.8015734373835253
392374721 -0.5256799273043602 -0.7925588420547157
393365441 -0.5256345540442489 -0.7902755145904202
394356161 -0.5239391602383859 -0.7914688602777085
395346881 -0.5393057059325091 -0.7806733670147304
396337601 -0.5263442644143634 -0.7882207225080379
397328321 -0.5386703283177408 -0.7819250226305501
398319041 -0.5403444257872714 -0.7800119017402418
399309761 -0.534348508193981 -0.7801429563235647
