# Hz S RI R 50
50000 0.9992000903055616 0.00030224548274688595
1040719 0.9989412067656869 -0.006671399431992455
2031438 0.9994130430332097 -0.012972518758550338
3022157 0.998643453913051 -0.02002920448860436
4012876 0.9989423380730225 -0.02595463072684364
5003595 0.9984897665542292 -0.0329550538850736
5994314 0.9980659542865237 -0.03886496550173279
6985033 0.9980912724729901 -0.0456943995994399
7975752 0.9976544535070061 -0.05251400366917298
8966471 0.9973878479431704 -0.05801561005830014
9957190 0.9967315502352436 -0.06544835304959284
10947910 0.9963820994473989 -0.07101831814254224
11938628 0.995738481238256 -0.07777883686309167
12929347 0.9953968156754562 -0.08480926027232465
13920067 0.994940341367205 -0.09061527514107182
14910786 0.9941159603764851 -0.09802792723758412
15901505 0.9933467574028972 -0.10365430804286949
16892224 0.9927138823277052 -0.10985760264982017
17882942 0.991725085441627 -0.1172757478448481
18873662 0.9912227997817264 -0.12229517986649639
19864380 0.9901186791964284 -0.13013436497625802
20855100 0.9889227750894212 -0.13548546822648472
21845820 0.9883029897109449 -0.14217471721689484
22836536 0.9870408646888008 -0.1494659215672201
23827256 0.9867046260522787 -0.15448975709522336
24817976 0.9851404650078773 -0.16212383444288422
25808694 0.9836832648891338 -0.1674418231534332
26799414 0.9828761101277015 -0.17394279426867504
27790134 0.9814194959738379 -0.18155182709969558
28780852 0.9803959684216192 -0.18614043572201572
29771572 0.9788155386720037 -0.19429221420098927
30762290 0.9781048634235385 -0.19930974567514448
31753010 0.9764469979895509 -0.20533437547945077
32743730 0.974989735387791 -0.2128646340332624
33734448 0.9739863671569252 -0.21725501253785878
34725168 0.9720072228330175 -0.22596611627457147
35715884 0.9707604552988126 -0.2297797763010814
36706604 0.9693317262374546 -0.2365144286386063
37697324 0.9681502495194703 -0.24497923301040314
38688040 0.9660184450749534 -0.24818715645757783
39678760 0.9636074677491083 -0.25707178149175774
40669480 0.962541706344912 -0.2611745907048915
41660200 0.9609143523800855 -0.2669951640214748
42650920 0.9580121649319826 -0.27524551357497645
43641640 0.9579076487880311 -0.27963256200235087
44632360 0.9539119682116167 -0.28810867049002686
45623072 0.9520904220402504 -0.2908436025548167
46613792 0.9514994399199489 -0.29739353844254646
47604512 0.9486225128560922 -0.3056237789638547
48595232 0.9471475928155034 -0.30899371569548817
49585952 0.9446749167569682 -0.31796464332295743
50576668 0.9425688201876348 -0.3213677230173855
51567388 0.9410839655453564 -0.3271328346040006
52558108 0.9372001613440126 -0.33564562271575193
53548828 0.9365148504686802 -0.33855292775386764
54539548 0.933207349933673 -0.34815345288948746
55530268 0.933477832641307 -0.3517309154553242
56520984 0.9290603220879775 -0.3567234026551715
57511704 0.9260479147564186 -0.36359626345777557
58502424 0.9253192808301712 -0.3680917626964389
59493144 0.9200993575924474 -0.37754366648619153
60483864 0.9199663990879787 -0.38064581014639637
61474580 0.9162025509177117 -0.38510759749515505
62465300 0.9130977817989941 -0.3945605882785552
63456020 0.9114390391469249 -0.39679475777289946
64446740 0.9089772119618748 -0.4063841303657628
65437460 0.9065842430337395 -0.40826660509198237
66428172 0.9055667192794447 -0.414971773498247
67418896 0.8988479660067624 -0.42193212630696786
68409616 0.8984203753962873 -0.42397395275496796
69400336 0.8930674734974026 -0.43420679151154645
70391056 0.8915708121713178 -0.4357378854856974
71381768 0.8895259542572576 -0.4414912746317763
72372488 0.8861515537949621 -0.4502447923059941
73363208 0.8834719104560194 -0.4528567467141619
74353928 0.8798712664937811 -0.4625959476082102
75344648 0.8767688109280788 -0.46367563317606997
76335368 0.8745756980823998 -0.46838229484335553
77326080 0.8705356284519568 -0.47781109470635497
78316800 0.8698433908493497 -0.478935815337415
79307520 0.8634971144556091 -0.4883076910305784
80298240 0.8633890734811764 -0.48954709568473825
81288960 0.8606173649569234 -0.4953031144862053
82279680 0.8549474952659081 -0.5030517978768838
83270400 0.854350206179045 -0.5047658345112939
84261120 0.8490803488815832 -0.5136489104315971
85251840 0.8484620659601716 -0.5165113077789353
86242560 0.8414665432796142 -0.5205289084494776
87233280 0.8378112907058021 -0.5290701406989939
88224000 0.8372196922146462 -0.5298202923199693
89214720 0.8289422266375552 -0.5378959704001685
90205424 0.8313574895563233 -0.5415059916701372
91196144 0.8250793591607032 -0.5447690381258297
92186864 0.8194742191872182 -0.5543732423851392
93177584 0.819169208645727 -0.5556820578421074
94168304 0.8123880573533254 -0.5658067018379134
95159024 0.812365011263234 -0.566964754655149
96149744 0.8071531591709787 -0.5696517523649285
97140464 0.8019237572515396 -0.5771603994773089
98131184 0.8011502909029933 -0.5793688412398885
99121904 0.7945953133463719 -0.5877265179716964
100112619 0.7937233214386747 -0.5890247199964855
101103338 0.7868715490418033 -0.5978899622602903
102094057 0.7866080479360918 -0.5982007835402855
103084776 0.7795032119755666 -0.6061218975688049
104075495 0.7779106253582941 -0.6085378232806413
105066214 0.7747934923914046 -0.6123017880499866
106056933 0.7670072340963041 -0.6212444641802182
107047652 0.7675051342163325 -0.6209648408730404
108038371 0.7605478740286716 -0.6297507836240739
109029090 0.7588038706380265 -0.6316613602240309
110019809 0.7552091430453045 -0.6355031909637643
111010529 0.7472505106809264 -0.6441892349076276
112001247 0.7486993108735627 -0.6437661638103342
112991966 0.7400296127467194 -0.6526079768291133
113982686 0.7382046852674382 -0.6533444610283067
114973405 0.7358815737319211 -0.6567961536664141
115964124 0.7270132756871228 -0.6657134997704629
116954843 0.7279749641622242 -0.665585860173329
117945561 0.719563732239567 -0.6735123781293503
118936281 0.7189973506118362 -0.6743449867508523
119926999 0.7155519179351053 -0.6773306690548203
120917719 0.7073778762394386 -0.6864348993229678
121908439 0.7079769150687437 -0.6849475839037378
122899155 0.6993171309492034 -0.6943248357796636
123889875 0.6980851584505858 -0.6946699312685722
124880595 0.6954427552256608 -0.6974115985707127
125871313 0.6858039600225303 -0.7058422259985662
126862033 0.6877299835933339 -0.705250020654755
127852753 0.6779324570792636 -0.7131284815687744
128843471 0.6772549313632281 -0.7135544088910799
129834191 0.6736861828440809 -0.717294182977195
130824909 0.6646142754946741 -0.7257692726310615
131815629 0.6660284266117418 -0.7235505951302387
132806349 0.6556238186363688 -0.7313122582030855
133797067 0.6564115068827548 -0.7327948026519976
134787787 0.6534924307121848 -0.7353345119329702
135778503 0.6423520569977624 -0.7433564064468324
136769223 0.6442180349617048 -0.7418520062546597
137759943 0.6349332511180213 -0.7502052644216681
138750659 0.6343726488601625 -0.7500047672866992
139741379 0.6319101709905401 -0.7531995398690422
140732099 0.6204296257095615 -0.7606448606127227
141722819 0.6230232066264945 -0.7581047587584626
142713539 0.613172742647567 -0.7673536992805982
143704259 0.6128316421056091 -0.767214624767767
144694979 0.609574493743746 -0.7688552615864946
145685691 0.5983595231947272 -0.7773142322072526
146676411 0.6013426844416279 -0.7750825117512022
147667131 0.5912461577698972 -0.7825412826271205
148657851 0.5903957797377193 -0.782356124795376
149648571 0.5874491553995371 -0.7848874425726106
150639287 0.5793863004551638 -0.7914294615821762
151630007 0.578871715523318 -0.7908932867136469
152620727 0.5667864613494648 -0.7987038607653978
153611447 0.5691076920165546 -0.7976661723073039
154602167 0.5629936389130769 -0.8012098440668847
155592887 0.556102716975062 -0.8062523089619924
156583603 0.5568537386367122 -0.8061700233059594
157574323 0.5438680268503697 -0.8134565564542644
158565043 0.5465312207832098 -0.8120019332574505
159555763 0.541091114356954 -0.8154539323759259
160546483 0.5333587281976817 -0.8201862823897452
161537199 0.5348701874134385 -0.8197495984937136
162527919 0.5211758435853338 -0.8274763566401847
163518639 0.5242264279487577 -0.8258336302055098
164509359 0.5186832571510294 -0.8287552216094276
165500079 0.5109992504085514 -0.8328117274609105
166490791 0.5109026613463481 -0.8329005525006346
167481515 0.4981430131868116 -0.8403895233130574
168472235 0.5013972655873158 -0.8388662630381137
169462955 0.4952665581376679 -0.8418390984671513
170453675 0.48639628982198424 -0.8461052090504446
171444387 0.48756626417051435 -0.8458531177067309
172435107 0.47363529930800974 -0.8522928843849003
173425827 0.4780104723437559 -0.8511405155213894
174416547 0.47180801548713147 -0.8530589410535434
175407267 0.4640221336599206 -0.8586102440185401
176397987 0.4654212194486629 -0.8574429056202842
177388699 0.45136683102938896 -0.8640465296171408
178379419 0.4549229351589485 -0.8624558080181222
179370139 0.4488475347639065 -0.8647277041064614
180360859 0.43998962269200614 -0.8692614666525371
181351579 0.44172067796991066 -0.8683851608036504
182342299 0.4277826920228445 -0.8743579077809216
183333019 0.4319857714233161 -0.8737306617036095
184323739 0.42539360657725794 -0.8757596467351026
185314459 0.4180340232339725 -0.8795864396281459
186305179 0.418535889431485 -0.8794285364329056
187295899 0.4046528216220757 -0.8852325527288661
188286619 0.40795968633610236 -0.883071491640565
189277339 0.4023982582608389 -0.8862399443746447
190268043 0.39482840516173134 -0.889450632251619
191258763 0.3955155082177617 -0.8896280278255023
192249483 0.38159816965526505 -0.8946379637411022
193240203 0.385490305852103 -0.8933984301475106
194230923 0.37829474223581877 -0.8951279126429578
195221643 0.37002330877581135 -0.8985919199369048
196212363 0.3707668532384235 -0.897314269377455
197203083 0.35797359720428984 -0.9026617383565089
198193803 0.3616819091258874 -0.9015189449080111
199184523 0.3554677970865156 -0.9049944563365803
200175238 0.34299529287877184 -0.9071575038249613
201165957 0.35082565065137217 -0.906401935832533
202156676 0.33754863066776997 -0.909714521960564
203147395 0.3357360692816123 -0.9105230365707243
204138114 0.3340258397681912 -0.9115543067447842
205128833 0.3193799453648756 -0.9158710048345783
206119552 0.32492504711112713 -0.9141678940079775
207110271 0.3147791891795952 -0.9170369205126698
208100990 0.31111423340478045 -0.9186821709006949
209091709 0.31159052481974153 -0.9182849947225975
210082428 0.29576806944996553 -0.9240510243164495
211073148 0.3027659252405496 -0.921047051062784
212063866 0.29079042967547114 -0.9248454398161308
213054585 0.28888433514152106 -0.9248875980957209
214045305 0.2881376084613331 -0.9245384629675731
215036024 0.27191631632625257 -0.9285039038520427
216026743 0.2781922636068873 -0.9282209066675187
217017462 0.268574260335307 -0.9306019995026668
218008180 0.265536677410002 -0.9316926231038098
218998900 0.26466636818337597 -0.9317887881830412
219989618 0.2487795497857028 -0.9368517404068845
220980338 0.2544762297351145 -0.9347557466475972
221971058 0.2441091285738709 -0.9357196353118867
222961774 0.2409243291610898 -0.9363177574301034
223952494 0.24049702420469557 -0.9364929702820886
224943214 0.2261269333891538 -0.9417212251866044
225933932 0.23227669234419884 -0.9400408898431623
226924652 0.22099392273508217 -0.9431600248116678
227915372 0.21847146064269285 -0.9421167983618143
228906090 0.21857424111809556 -0.9419015414665953
229896810 0.2016215291966126 -0.9457244105251204
230887528 0.20842466338959023 -0.9445610968275266
231878248 0.19856305099048352 -0.9463166224330303
232868968 0.19547609523315435 -0.9467713024561291
233859686 0.19449428346365144 -0.9470094065403253
234850406 0.17790963961097087 -0.9499940055367077
235841122 0.18498097339008826 -0.9488167865503737
236831842 0.1754594897377416 -0.9504270838943105
237822562 0.1717418683948604 -0.9515154216930222
238813278 0.17190014979268683 -0.9501577651376683
239803998 0.1555391348540445 -0.9519473339731982
240794718 0.16243831569262013 -0.951750714864757
241785438 0.15204217824605826 -0.9541899275731643
242776158 0.14834482635074744 -0.9542124734293637
243766878 0.14928887173624553 -0.9541366885340851
244757598 0.1329819589151213 -0.9564051659269814
245748310 0.13878270637267398 -0.9552864465302138
246739030 0.12896760168365132 -0.956225081042714
247729750 0.12605266724707065 -0.9576026062419339
248720470 0.1263762980225559 -0.9563023380925664
249711190 0.10837135850869913 -0.9585203717760579
250701906 0.11562923071564278 -0.9584650615750916
251692626 0.10633933711479074 -0.9596497605191204
252683346 0.1054718264073223 -0.9593362798085922
253674066 0.10471157949233144 -0.9589239801987612
254664786 0.08879412868884178 -0.9606373522682861
255655506 0.09518889178338553 -0.9610231979257678
256646222 0.08511853043155924 -0.960219272881582
257636942 0.08372854073609683 -0.9602460147691286
258627662 0.08173866819278333 -0.9602153735412706
259618382 0.06403419239079232 -0.9613208461151209
260609102 0.0715085836458396 -0.9614063927792964
261599818 0.062127229112418345 -0.9614998176199194
262590538 0.0590386362642185 -0.9606359793350874
263581258 0.06022705050882618 -0.960684213780978
264571978 0.04357885038700784 -0.9616406518550382
265562698 0.05099809633995632 -0.9613451535158324
266553410 0.04042501154229298 -0.963408469593417
267544134 0.03725396445384243 -0.9625648419521149
268534854 0.036756625399992436 -0.9615123666886851
269525574 0.021738182921555497 -0.962394685124444
270516294 0.03079012720104287 -0.9622205696063747
271507006 0.018599530095105413 -0.961378017609573
272497726 0.017291529179991806 -0.961054176627356
273488446 0.017493319352183956 -0.9613683960282834
274479166 0.0002000274123100042 -0.9632437650485107
275469886 0.009421200683054508 -0.959403702800513
276460606 -0.0015315176315264132 -0.9613787367910163
277451318 -0.003548046017721504 -0.9603744561978417
278442038 -0.003707119852059252 -0.9600373436382662
279432758 -0.022115805334698764 -0.9597880630392396
280423478 -0.01278435786940283 -0.9597321585354578
281414198 -0.023838923658692678 -0.9589132109842141
282404918 -0.023549486426468026 -0.9604554920756269
283395638 -0.024380121101545957 -0.9587981509820728
284386358 -0.039974539297774954 -0.9576272824351945
285377078 -0.03302004274484635 -0.9598058548956231
286367798 -0.043684308395468864 -0.9559467782758003
287358518 -0.04766536378010426 -0.9576744788742353
288349238 -0.04577702955770554 -0.9581395305624215
289339958 -0.0640928959679042 -0.957159148054762
290330662 -0.05278807989751778 -0.9581954708235871
291321382 -0.06581185967754903 -0.9568766544868401
292312102 -0.06794798234853987 -0.9557165396975706
293302822 -0.06660930411436448 -0.9555516051606845
294293542 -0.08306807602777318 -0.9537763817853301
295284262 -0.07680273969528513 -0.9548361236190882
296274982 -0.0860526347780016 -0.9520004281020816
297265702 -0.08755024256106989 -0.9531872397303655
298256422 -0.08578240429784638 -0.9550327996920085
299247142 -0.10269723649289268 -0.9520004920974117
300237857 -0.10656685043737817 -0.9503689544582099
301228576 -0.11105395195456022 -0.9541133167241606
302219295 -0.1098234932916883 -0.9517771922042036
303210014 -0.12065198120108994 -0.9448624073729753
304200733 -0.11327787319147134 -0.94590477155335
305191452 -0.121482570620698 -0.9451436176398064
306182171 -0.12937346803462588 -0.9460603550459966
307172890 -0.1296793391521114 -0.9471790270841729
308163609 -0.14010278744087049 -0.9413085812703451
309154328 -0.12963898107815655 -0.9447867842318457
310145047 -0.14580660011993563 -0.9428430665866031
311135767 -0.15214024304507842 -0.9439281552280823
312126485 -0.14198967015858685 -0.9439762135295108
313117204 -0.16566781942599582 -0.9382599664053213
314107924 -0.14774501534495768 -0.9440230048220662
315098643 -0.16308357263545442 -0.9375984082212362
316089362 -0.1687813678104072 -0.9363905129839076
317080081 -0.16797602787608057 -0.9377027610733661
318070799 -0.18024739582992244 -0.9374930829994843
319061519 -0.1723919465990697 -0.9427300574440831
320052237 -0.18398009490751763 -0.9371116044384258
321042957 -0.18267653900306358 -0.9369102384373607
322033677 -0.18715345787289775 -0.935220814630731
323024393 -0.19870897942206697 -0.933004582079619
324015113 -0.18938215539338438 -0.9363413980428695
325005833 -0.20625599320882215 -0.9334620005234118
325996551 -0.20334188431345065 -0.927700016631219
326987271 -0.20087061786401672 -0.9333065363325088
327977991 -0.22133012313735773 -0.9272018955620149
328968709 -0.21187303502822796 -0.9246596236813946
329959429 -0.21939431007465066 -0.9219529911237088
330950147 -0.22204684132253952 -0.92609662138003
331940867 -0.21887002867664923 -0.9282581012625377
332931587 -0.23661537660426102 -0.9228943609120488
333922305 -0.2270202598323413 -0.9272663761048971
334913025 -0.23771251109732744 -0.923568233249876
335903741 -0.23872407306156804 -0.9282465102904448
336894461 -0.239122122586702 -0.9233553004685381
337885181 -0.25389215260851283 -0.9223106563363157
338875897 -0.2474750754269373 -0.9249226854868969
339866617 -0.25565254557482403 -0.9200149161303086
340857337 -0.2542900583512312 -0.9216040320123754
341848057 -0.25302537579375456 -0.921631306406036
342838777 -0.27071339917575477 -0.9177152832630693
343829497 -0.2601486382743958 -0.9193849234797461
344820217 -0.27711399089355926 -0.9122250959749459
345810929 -0.27296703048396703 -0.9172642875414411
346801649 -0.2793571247236406 -0.9133349660193519
347792369 -0.28673261333428224 -0.911865730278867
348783089 -0.27605388440360373 -0.9109349865288724
349773809 -0.2919246728738791 -0.9120358024007659
350764525 -0.2910596478407968 -0.9103459499137672
351755245 -0.2903270115035833 -0.9133534378800053
352745965 -0.30478857446996627 -0.9058461495999941
353736685 -0.2992341249004865 -0.9087199916996652
354727405 -0.30831272303043583 -0.9081957979776606
355718125 -0.3071051887544052 -0.9008449905203045
356708841 -0.30981180497938754 -0.905635543429479
357699561 -0.32205400253295685 -0.9005081913483396
358690281 -0.3147902496018896 -0.906238161286999
359681001 -0.3245759590557428 -0.9028237895529286
360671721 -0.32327061717510647 -0.9005648757116679
361662437 -0.32440604004686097 -0.8950304020830747
362653157 -0.3385562272936937 -0.8993515680183866
363643877 -0.3284092651327557 -0.9017653001775122
364634597 -0.34066451951245924 -0.9029648522640147
365625317 -0.33708020089994317 -0.8967950734530319
366616029 -0.34365227975693885 -0.8988132173070087
367606753 -0.35400574253356587 -0.886654525809518
368597473 -0.3510878230271311 -0.8936595342153173
369588193 -0.3554415213250113 -0.8897226502976924
370578913 -0.3576475892668921 -0.893870171050006
371569625 -0.353990131412106 -0.8902760366418278
372560345 -0.3745643826461799 -0.8845601844576564
373551065 -0.35632375812658357 -0.8880752120466122
374541785 -0.3682266329409066 -0.8842045774169713
375532505 -0.3668179688934285 -0.885658161435382
376523225 -0.3689219279570274 -0.8908207833530456
377513937 -0.3809157969383365 -0.879802236493973
378504657 -0.36980424378195387 -0.8809574836155079
379495377 -0.3808468159676603 -0.876990490978749
380486097 -0.3815318789262336 -0.8771484387557598
381476817 -0.3841392208171296 -0.8764859590350882
382467537 -0.3910588009264091 -0.8686539853442405
383458257 -0.3848424086542404 -0.8748966012833809
384448977 -0.39601166150679334 -0.8749510346724001
385439697 -0.391001100355701 -0.8683060268802445
386430417 -0.393092263078578 -0.8676997377738739
387421137 -0.4081801476676024 -0.861496728586416
388411857 -0.4000790893286264 -0.8676862204647524
389402577 -0.4068651880510905 -0.8613617823757622
390393281 -0.40866384414279877 -0.8617433856551908
391384001 -0.4048484696423297 -0.8636985573434492
392374721 -0.41804980147675525 -0.855344635417069
393365441 -0.410973099668229 -0.8588905515764281
394356161 -0.4209483228023503 -0.8533234780192793
395346881 -0.4212824770970909 -0.8540549319580925
396337601 -0.4160393896429713 -0.8544631071890266
397328321 -0.4332950460622892 -0.846473183686319
398319041 -0.4269096573665056 -0.8501242902873273
399309761 -0.43172869755123217 -0.8416229636314585
