# Hz S RI R 50
50000 0.9992485174532812 0.0003438251989709386
1040719 0.9986298216916353 -0.009585821431501803
2031438 0.9991125795920739 -0.01859670157425993
3022157 0.9987934611943298 -0.02755272983110222
4012876 0.9985494348118068 -0.03705770020473945
5003595 0.9979930295656247 -0.045616099559424444
5994314 0.9973672538821635 -0.0558370705281755
6985033 0.9968671689367375 -0.06394123199929244
7975752 0.9963672097716061 -0.07332903209214277
8966471 0.9953771916250247 -0.08263675848938304
9957190 0.9947003035417085 -0.09104896621164547
10947910 0.9937243621915647 -0.10177159875683427
11938628 0.992514221204935 -0.10934092815395388
12929347 0.9915476492709705 -0.11851791221498982
13920067 0.9904545702462848 -0.12869331099989717
14910786 0.9894157488048799 -0.13602363223892963
15901505 0.9875796022136404 -0.14790560862739494
16892224 0.9864317633619247 -0.15376985132687498
17882942 0.9850589213559471 -0.16397994009970576
18873662 0.9828343541709672 -0.17342995146709178
19864380 0.9818469051621537 -0.18049884116042625
20855100 0.9792453705611026 -0.1933471968446765
21845820 0.9781650893135287 -0.19869949828624384
22836536 0.9759996898588472 -0.2080209252968147
23827256 0.9743162374575978 -0.2185942102255099
24817976 0.9723647949600255 -0.22448701149958006
25808694 0.9685580853758702 -0.23787644165069802
26799414 0.9675703028089301 -0.24218717578667642
27790134 0.9651158828017612 -0.2520730696275928
28780852 0.962061353582984 -0.2629210661279605
29771572 0.9604291978469591 -0.26797928556274664
30762290 0.9565058802748436 -0.2821635984029379
31753010 0.9551875377139507 -0.285374535448219
32743730 0.952122491337142 -0.29489567213965184
33734448 0.9488344533669214 -0.3059180182746166
34725168 0.9470711670804901 -0.3103823738574899
35715884 0.9422602977178915 -0.3244774060930456
36706604 0.9411763113898157 -0.3281232378872897
37697324 0.9374833649906075 -0.3375421481320734
38688040 0.9336067498762018 -0.3474839013022374
39678760 0.9313809817118531 -0.35186765919600854
40669480 0.9255631034114833 -0.3669509837903705
41660200 0.9247004623375128 -0.36838558368985297
42650920 0.9207333244334633 -0.37830424172954596
43641640 0.9162042823534577 -0.3887255820170007
44632360 0.9146315406315088 -0.39284684339659115
45623072 0.9075699868788195 -0.4074100497654233
46613792 0.9072658121041441 -0.4089387382900749
47604512 0.9027929560818063 -0.4179055582912268
48595232 0.8970500990595095 -0.4287551225849319
49585952 0.8965117458029944 -0.4313613974923781
50576668 0.887159259743275 -0.44742184399904933
51567388 0.8875907000590975 -0.44791180949534354
52558108 0.8818377686995627 -0.45686304709115944
53548828 0.8764736037211448 -0.4672792787771348
54539548 0.8753193702513643 -0.4700938068184126
55530268 0.8677555712675604 -0.4865544996972453
56520984 0.8660276559310175 -0.48544307158116085
57511704 0.8604069366073802 -0.49261189431273017
58502424 0.8546249565711896 -0.504692763609365
59493144 0.8524817807624013 -0.5070842344358077
60483864 0.8429926687868947 -0.523424177331394
61474580 0.8441094497196518 -0.5207421288275658
62465300 0.8374975044171515 -0.5308934841338318
63456020 0.8311202225319125 -0.5417640716647122
64446740 0.8296460369980455 -0.542283119863356
65437460 0.819487198984083 -0.5579167649038562
66428172 0.8190243359716981 -0.5572541024328137
67418896 0.8121561707404465 -0.5648084318854641
68409616 0.8054279334943913 -0.5744176133989135
69400336 0.8031154433862553 -0.5768444125302562
70391056 0.7923826887264309 -0.5924764192203031
71381768 0.7947202489968677 -0.5906000687758758
72372488 0.788191114730548 -0.5982434822507626
73363208 0.7795919283323028 -0.6086700972216784
74353928 0.7797764279790524 -0.6089507495210592
75344648 0.7655729529563721 -0.6252759890132636
76335368 0.7685813346946616 -0.6224025402384585
77326080 0.7619207691795402 -0.63093120828781
78316800 0.7532226481576544 -0.6400044731696791
79307520 0.7524784696654253 -0.6395630885395638
80298240 0.7389844118845468 -0.6553481322068864
81288960 0.7420408300007161 -0.6526861284852514
82279680 0.7343805616270451 -0.659581924716888
83270400 0.7250120742528736 -0.6695129355912349
84261120 0.7267134205957451 -0.6685969103381307
85251840 0.7098582757133425 -0.6844258509808891
86242560 0.7122051522898374 -0.679648896310271
87233280 0.7066709612434089 -0.6895253352831958
88224000 0.6951561256601135 -0.6975159206748612
89214720 0.6937535184440567 -0.695003997706735
90205424 0.6789776151455187 -0.7136607821248808
91196144 0.6819027129066575 -0.7076883610985835
92186864 0.6750641061404806 -0.7155923819511804
93177584 0.664573930098235 -0.724826873331339
94168304 0.666222165918419 -0.7241878848623529
95159024 0.6478227817168641 -0.7395554395803627
96149744 0.6518791354502288 -0.7337483212678214
97140464 0.6448771478300632 -0.7403866534388688
98131184 0.6341195589616185 -0.7496086800893159
99121904 0.636546217233689 -0.747582411954304
100112619 0.629038782948354 -0.753899804499298
101103338 0.6194344435103962 -0.7617282895774662
102094057 0.6111484067256024 -0.7679360513157168
103084776 0.611790647234321 -0.7666638492648039
104075495 0.5921225766819078 -0.7814193365417484
105066214 0.598143755250245 -0.7774341440677043
106056933 0.5885288087528856 -0.7840934822935164
107047652 0.5801952162711724 -0.7907224783441541
108038371 0.5807196537015468 -0.7896987790260962
109029090 0.5602235334301289 -0.803816703829118
110019809 0.5669759167460962 -0.7993908944563738
111010529 0.5563774033393432 -0.8057094888558095
112001247 0.5486714563372176 -0.8118254754926668
112991966 0.5493675175814117 -0.8114752858742571
113982686 0.5273893119914175 -0.823691644607079
114973405 0.5358693836037297 -0.8194832738207156
115964124 0.5246690068308897 -0.8249226162734248
116954843 0.5159742869874213 -0.8313452362223571
117945561 0.5180204203330896 -0.8295708093269566
118936281 0.49612664607447016 -0.8419621128080915
119926999 0.5036880215129774 -0.8376037395342785
120917719 0.4928510137775162 -0.8438587821173739
121908439 0.48447151164678665 -0.8483038748090291
122899155 0.4861039243693987 -0.8481846154147377
123889875 0.46309645317753295 -0.8595194194668186
124880595 0.47268399855601645 -0.8547635237702785
125871313 0.4610861793580026 -0.859598429115799
126862033 0.45251680359734053 -0.8653590078118605
127852753 0.4536446806599305 -0.8638928075112311
128843471 0.431227832359061 -0.8747834292114584
129834191 0.4401403152206639 -0.870490546708096
130824909 0.4297331307570098 -0.8750072497377303
131815629 0.42075678060382565 -0.879329083797833
132806349 0.42155298060808555 -0.8777428839983383
133797067 0.3991703572420923 -0.8886512576926933
134787787 0.40949332714988534 -0.8847706434820349
135778503 0.39753925498835174 -0.8892109261312352
136769223 0.3867649279144727 -0.8923370774228482
137759943 0.39173352878980305 -0.8920011088559145
138750659 0.36760500117217465 -0.9009813311098233
139741379 0.37726742140565794 -0.8976489253940133
140732099 0.3663888630934521 -0.9014209888928877
141722819 0.35653437139739974 -0.9047054353658791
142713539 0.3588140855913359 -0.9031092559621615
143704259 0.33350376678039273 -0.9119941660564004
144694979 0.3459479004055568 -0.9080592320880848
145685691 0.3337084089488373 -0.911340302990606
146676411 0.3246319990951112 -0.9146647522760781
147667131 0.32825710299373584 -0.9137275638865213
148657851 0.30245628712038286 -0.9213720131985741
149648571 0.3140179009434215 -0.9175619834308987
150639287 0.2963807972771354 -0.9240910875540068
151630007 0.2984481159358101 -0.9228550562700486
152620727 0.2970606490431872 -0.9229994823057797
153611447 0.27130995728854784 -0.9302723914883408
154602167 0.2847235077391029 -0.9277338627356971
155592887 0.2640482489841367 -0.9321845949868253
156583603 0.26769983622535903 -0.9314985012194316
157574323 0.26474341172150145 -0.9311787169408078
158565043 0.24053600399701974 -0.9379394337431497
159555763 0.2537744759943456 -0.934366498850632
160546483 0.23280914717933254 -0.9387251159531885
161537199 0.23713416388687097 -0.9392124617837762
162527919 0.2341981311363423 -0.9386269345100714
163518639 0.2092222195350976 -0.9433009517167191
164509359 0.2231202189207835 -0.9414548154726954
165500079 0.20353154171594276 -0.9447896919781706
166490791 0.20537092224244552 -0.9429210183866876
167481515 0.204056253430959 -0.9441072726438658
168472235 0.17912601207281278 -0.9484619883260003
169462955 0.19199829060226872 -0.9459982802601934
170453675 0.17098364727456533 -0.9492815084392097
171444387 0.17464221070104644 -0.9488230251214093
172435107 0.17267174707252458 -0.9482100842828325
173425827 0.14870214929831513 -0.9525321014231812
174416547 0.1621859441054693 -0.9491251137841367
175407267 0.1416160099075789 -0.9535356854044575
176397987 0.14512969235115003 -0.952521439445633
177388699 0.14444786906714838 -0.9525295374057606
178379419 0.11809190711103712 -0.9553656803287517
179370139 0.13329989360723363 -0.9535634541884493
180360859 0.1119762647025429 -0.9554537320706401
181351579 0.11583294536454092 -0.9554806262936398
182342299 0.1147009718712907 -0.9548975974455084
183333019 0.08891194118783921 -0.9587183722344119
184323739 0.10293137657698792 -0.9563291056867451
185314459 0.08337317009942169 -0.9577941860056092
186305179 0.08629108327499717 -0.9574484830385787
187295899 0.08567867504440246 -0.9574349637303822
188286619 0.058894798243743295 -0.9576601513411152
189277339 0.0749759893331795 -0.957859166250896
190268043 0.0545101789087502 -0.959034482267388
191258763 0.057790136131572356 -0.9593929434824447
192249483 0.057282404761618846 -0.9589694200588285
193240203 0.030300948305444768 -0.9593302956950214
194230923 0.045091127951571726 -0.9581023843040044
195221643 0.025007866913252703 -0.9591896650959071
196212363 0.028430202737304587 -0.9581425123230228
197203083 0.030432725908318317 -0.9584207606722642
198193803 0.002765568952892464 -0.9583735277511549
199184523 0.018129245900417222 -0.9594781471947551
200175238 0.012019462054239087 -0.9577216720329821
201165957 -0.007558082502832258 -0.9590730734973055
202156676 -0.005258139709665024 -0.9576188111642784
203147395 -0.004228382047249033 -0.958296160756111
204138114 -0.03127410825541393 -0.9564881970551558
205128833 -0.015570437148920565 -0.9573983164541968
206119552 -0.03597727435560011 -0.9565600380021947
207110271 -0.03140905113355565 -0.9565884792641342
208100990 -0.03272059729313859 -0.9570151212848503
209091709 -0.05617548308962006 -0.9542880994080852
210082428 -0.04234185418248996 -0.9572617546470317
211073148 -0.06123578294684759 -0.9544918147432548
212063866 -0.05810064383314252 -0.9552561060263226
213054585 -0.058309913769131735 -0.9545295006966242
214045305 -0.0839968960330708 -0.951663188857731
215036024 -0.06904537324886131 -0.9527181269409973
216026743 -0.08895381719159878 -0.9514465414757431
217017462 -0.08374034731658911 -0.9525235377382351
218008180 -0.08448187546846864 -0.9522590664188224
218998900 -0.1097845734462042 -0.9488884769130885
219989618 -0.09481657135525641 -0.9520231306762762
220980338 -0.11561692204795751 -0.9482246478999363
221971058 -0.11010122010486363 -0.9473538688659134
222961774 -0.1097071605053002 -0.9478309158615296
223952494 -0.1355972460036357 -0.944076504948782
224943214 -0.11860963451922445 -0.9484388274563145
225933932 -0.13995737251238213 -0.9453445394934099
226924652 -0.1355064779520916 -0.9465005303039868
227915372 -0.13574402080331138 -0.9445729854333043
228906090 -0.1602070949585168 -0.9400395152731376
229896810 -0.1446198244670096 -0.9431654780761013
230887528 -0.16525366343264455 -0.939668685155113
231878248 -0.1588754231186958 -0.9406891805178503
232868968 -0.15996232865311386 -0.940279892775992
233859686 -0.18529830799853136 -0.9349879221890074
234850406 -0.1697250717491002 -0.9393231226480994
235841122 -0.18966585891978333 -0.9345046055279669
236831842 -0.18323717362761788 -0.9352208099368718
237822562 -0.18405917087583332 -0.936149295620404
238813278 -0.2082156555337578 -0.9292587120207118
239803998 -0.19470365018466565 -0.9327423413617241
240794718 -0.21220057048729976 -0.9287316347517127
241785438 -0.20740553517676627 -0.929809397314495
242776158 -0.20801698004455682 -0.9294255838164394
243766878 -0.23197846912715683 -0.9236142549039931
244757598 -0.21680507095718654 -0.9283285323736339
245748310 -0.23641985993812453 -0.9220376399036123
246739030 -0.23018833811601175 -0.9241154230877877
247729750 -0.23170262612128628 -0.923921761561855
248720470 -0.2549417415719447 -0.9159303211822913
249711190 -0.24009153430920124 -0.920805781342162
250701906 -0.2592283464531634 -0.9148125290245919
251692626 -0.25366388367685555 -0.9180449122741938
252683346 -0.2520066072391145 -0.9181753073235873
253674066 -0.2767249649591248 -0.9095005435008476
254664786 -0.2610199322637747 -0.9152383267734117
255655506 -0.28088613261103795 -0.9099183846857447
256646222 -0.2739280315516262 -0.9106483339555502
257636942 -0.274845535494987 -0.9107570556271366
258627662 -0.2990808021547545 -0.901799062762279
259618382 -0.2833469099297496 -0.9069888928719412
260609102 -0.3024029943670991 -0.9014571220304138
261599818 -0.29688154941590333 -0.9027685831398904
262590538 -0.296829899739279 -0.9017432610676889
263581258 -0.31927884153354374 -0.8934398644865171
264571978 -0.30425563952537926 -0.9000510378474559
265562698 -0.32283497461535243 -0.8939140296905463
266553410 -0.3184785476727717 -0.8964057849854509
267544134 -0.3167820637599746 -0.8970873951966809
268534854 -0.34089453855775204 -0.8857423785527317
269525574 -0.32437710331402975 -0.8927068004046699
270516294 -0.34147825125768383 -0.8852986969035742
271507006 -0.3369749316553542 -0.8866745943515459
272497726 -0.33637111570662737 -0.8867735735343023
273488446 -0.35863488866771004 -0.8778854958207084
274479166 -0.344976442335777 -0.8864132637520022
275469886 -0.359413292862254 -0.8750665174763019
276460606 -0.3568663657565803 -0.8787793633124922
277451318 -0.3559829668480126 -0.8783493556349583
278442038 -0.3778986602166684 -0.8686866900880473
279432758 -0.36530305336716246 -0.8749055236879814
280423478 -0.38123888517463617 -0.8673481955069184
281414198 -0.3753436690940098 -0.8685248306931175
282404918 -0.3748340946758966 -0.8710664784941001
283395638 -0.3972627582947594 -0.8587732181964189
284386358 -0.3814965298477486 -0.8657766756662917
285377078 -0.400471012914642 -0.8592984471726368
286367798 -0.3950731605586341 -0.8593932012906874
287358518 -0.3953345627448449 -0.8604199872770232
288349238 -0.41541587861665935 -0.8504118553360435
289339958 -0.40298521208255433 -0.8566191458625243
290330662 -0.4192088997294995 -0.8489246248413905
291321382 -0.41413609191767387 -0.8513542659720568
292312102 -0.4136730476486923 -0.8503864428480623
293302822 -0.43348508970914224 -0.8397525415410124
294293542 -0.41903815333971306 -0.8474692581542356
295284262 -0.43551645176686 -0.838366587767155
296274982 -0.4299899367232056 -0.8397113144473994
297265702 -0.4297418795183917 -0.8411094293871442
298256422 -0.4510317518088253 -0.8308961158697665
299247142 -0.4361100997043988 -0.838560514608458
300237857 -0.4490829313410846 -0.8328087756386515
301228576 -0.474618379939226 -0.8227911783325036
302219295 -0.4557455279984188 -0.8277300365020456
303210014 -0.46278751253925465 -0.8251767939008141
304200733 -0.46665207248775087 -0.822034609006642
305191452 -0.4603619899986668 -0.8267673196545431
306182171 -0.4870600048037197 -0.8111680916907776
307172890 -0.4748732836692099 -0.8216432546743624
308163609 -0.4782043055528371 -0.813217780775518
309154328 -0.48279727109594917 -0.8151213292316523
310145047 -0.48036265176191456 -0.815432997885076
311135767 -0.5073465452412281 -0.8006089661516196
312126485 -0.4864584959161265 -0.8124153949111873
313117204 -0.5006486347457701 -0.8023875727665678
314107924 -0.4988357309606824 -0.8082449080141874
315098643 -0.4954930448877125 -0.8044847965019438
316089362 -0.5206017504843318 -0.7894698184273248
317080081 -0.5050660706803053 -0.7994049568789663
318070799 -0.5142232217614687 -0.7958276781642728
319061519 -0.5181514155214599 -0.7978832690761023
320052237 -0.514044918663786 -0.7975479746162482
321042957 -0.533440940369825 -0.7842340749999434
322033677 -0.5216003132760764 -0.7907253919496603
323024393 -0.5280715490126215 -0.7861841502113894
324015113 -0.5326662109875193 -0.7858850717655934
325005833 -0.5323037421945227 -0.7865097085391505
325996551 -0.5458198334275657 -0.7703158154141457
326987271 -0.5323513802567573 -0.7839654662798718
327977991 -0.5463686273204531 -0.7743183895783026
328968709 -0.5487002284290964 -0.7671067471014161
329959429 -0.540651833671149 -0.7748245389808253
330950147 -0.5633113030346603 -0.7597853183991126
331940867 -0.5506923154161065 -0.7747040190144298
332931587 -0.5565051839571352 -0.7664869657226442
333922305 -0.5606726954224919 -0.7645549687334604
334913025 -0.5562038707776782 -0.7700759985681392
335903741 -0.5795767484401678 -0.7585681079322923
336894461 -0.564761671085072 -0.7627954885536806
337885181 -0.5753345626153726 -0.7596895897758968
338875897 -0.5782283289219105 -0.7586642649433558
339866617 -0.5725517557665267 -0.7602476301474017
340857337 -0.5898095352559187 -0.7457234584075262
341848057 -0.5738877896759461 -0.7586063575774741
342838777 -0.5880149879520056 -0.7490825418023006
343829497 -0.5860820736095878 -0.7479234185837741
344820217 -0.5869292503147424 -0.7483742125264492
345810929 -0.6055843171405664 -0.7370128374453436
346801649 -0.5945702468797672 -0.7416087523316178
347792369 -0.6001391808804536 -0.7399633745124395
348783089 -0.6008017615392143 -0.734539154916777
349773809 -0.6040686155470781 -0.7401504963437551
350764525 -0.6157595428361274 -0.7222090101547898
351755245 -0.6044478935798218 -0.7377630788582779
352745965 -0.6112735215858106 -0.7273593962231568
353736685 -0.6163171627000128 -0.7246271917493858
354727405 -0.6130771344850766 -0.7316855464152868
355718125 -0.6284757106286719 -0.7154995444435567
356708841 -0.6176795997463348 -0.7231314310646965
357699561 -0.6301691406434754 -0.7175981746763067
358690281 -0.6309641597489016 -0.7180857004202543
359681001 -0.6240870824610149 -0.721363957055298
360671721 -0.643511528247603 -0.7062951173902592
361662437 -0.6261362118295897 -0.713981291082004
362653157 -0.6394698883601353 -0.71109328332265
363643877 -0.6376580737525559 -0.7101157639944786
364634597 -0.6350769386216562 -0.7193749251706741
365625317 -0.6506161725914865 -0.6956361271204107
366616029 -0.6418040214644861 -0.7006628296544257
367606753 -0.6481549970481376 -0.6966328295102465
368597473 -0.6566198242118036 -0.6922269569125982
369588193 -0.6415775133507139 -0.7033498484497386
370578913 -0.6637742247888698 -0.6843450144078619
371569625 -0.6493797834777618 -0.6987479207379144
372560345 -0.6630335989185636 -0.688679881994445
373551065 -0.659087939697984 -0.6884530423916639
374541785 -0.6562640373026535 -0.69289108534224
375532505 -0.6720788000030784 -0.6790970248510289
376523225 -0.6640606485845749 -0.6888032432053794
377513937 -0.6685813798471413 -0.6814416683922652
378504657 -0.6675033118260717 -0.6796804512919887
379495377 -0.6642691611957489 -0.6830500089815928
380486097 -0.6824542591821693 -0.6642172067992925
381476817 -0.6723538329781847 -0.6759375742864067
382467537 -0.6727216402360554 -0.6690411857058703
383458257 -0.67855639496502 -0.6685254835430766
384448977 -0.6755605372559624 -0.672687808437051
385439697 -0.6864427097777722 -0.6538977542740088
386430417 -0.6786474436155947 -0.6656000020118295
387421137 -0.6860087268563192 -0.6570294580853158
388411857 -0.6895166343910718 -0.6564366881983877
389402577 -0.6814559653218974 -0.6570909947016927
390393281 -0.6988487215025585 -0.6421413194907766
391384001 -0.6846759478214652 -0.6572856368319111
392374721 -0.6926408587198338 -0.648887871819278
393365441 -0.6935125107390975 -0.6460227430143487
394356161 -0.6901397603018845 -0.6490832335266283
395346881 -0.7042992545439953 -0.6328146095932993
396337601 -0.6934588956575916 -0.642382641254564
397328321 -0.7013424446030829 -0.6367837257984423
398319041 -0.7040525152241275 -0.6337629325727528
399309761 -0.6975215540889514 -0.6390143673897377
