# Hz S RI R 50
50000 0.9992301583198144 0.0003555904547601411
1040719 0.998900391505221 -0.005034990145946707
2031438 0.9992094598216535 -0.009811779197527515
3022157 0.999109676484887 -0.014879266162026889
4012876 0.9989938870453228 -0.01962583176135521
5003595 0.9985660953579748 -0.024776850393116133
5994314 0.998311233706992 -0.029565304010218785
6985033 0.9982633371817573 -0.034572010722696236
7975752 0.998050629476612 -0.0395723460431275
8966471 0.9978997476929251 -0.04427590042407485
9957190 0.9978883007476084 -0.049399032564795047
10947910 0.9975337728520195 -0.05384806464662933
11938628 0.9969095805463636 -0.05902739615919556
12929347 0.996959540168116 -0.0639018485525677
13920067 0.9967669125768014 -0.06956631398886141
14910786 0.9960835346515031 -0.07409413832341025
15901505 0.9956752881193249 -0.07924999388562738
16892224 0.9953846924454856 -0.08384894068882265
17882942 0.9949105163749953 -0.08862499227989566
18873662 0.9942383684310145 -0.09415626330764022
19864380 0.9939772155268766 -0.09837026289815783
20855100 0.993209654042948 -0.10352184033165096
21845820 0.9930593246118019 -0.10857475513467528
22836536 0.9922473009507425 -0.11281412038861204
23827256 0.9919461792353301 -0.1189932519960495
24817976 0.9912388554070906 -0.12243510479488814
25808694 0.9900528777470413 -0.12818929194797324
26799414 0.9892999197300616 -0.13298414877564385
27790134 0.9890226504081875 -0.13715177665285389
28780852 0.988149891232211 -0.14328854616409892
29771572 0.9874074933958384 -0.1470457392200492
30762290 0.986941955111228 -0.152387984830341
31753010 0.9855966509011246 -0.15719907310676468
32743730 0.9850997197780018 -0.16143317851336245
33734448 0.9843285429054273 -0.16762538515421335
34725168 0.9837285057049822 -0.17112825841588403
35715884 0.9824128519797495 -0.17649424956709148
36706604 0.9814290473419548 -0.18199810836654
37697324 0.9804590263085603 -0.18590989375189904
38688040 0.9794568122462306 -0.1915506798814546
39678760 0.978781353280111 -0.1948591581375219
40669480 0.9774557083928478 -0.20075205464775614
41660200 0.976489015076438 -0.20517542705073608
42650920 0.9752433505502952 -0.20932432981929294
43641640 0.9747853108440064 -0.21597077980297957
44632360 0.9732597214773826 -0.2191811153104265
45623072 0.9707737798444491 -0.2240642759847109
46613792 0.9712728275289043 -0.22899081312006273
47604512 0.9701880855257755 -0.23276214963613603
48595232 0.9676548366006503 -0.2395013799148554
49585952 0.968011565481555 -0.2416141753789848
50576668 0.9652439138085316 -0.2476206720743916
51567388 0.9649183527752692 -0.2523708292572922
52558108 0.9629908365374547 -0.25607441724318053
53548828 0.9618762373785309 -0.262778217358906
54539548 0.9609727410713722 -0.2656392003342592
55530268 0.9604557549467235 -0.27207489650239625
56520984 0.9574166623147203 -0.2754841777781546
57511704 0.9571588384349795 -0.2784459873705668
58502424 0.955237265413078 -0.28652375730070356
59493144 0.9530450382792143 -0.28908174532262887
60483864 0.9521708378333813 -0.2952903530298533
61474580 0.9511565763539231 -0.29861209246632436
62465300 0.9490906875319196 -0.3027305105739237
63456020 0.9470724508899339 -0.31021704069821066
64446740 0.945716342893358 -0.3115155851210722
65437460 0.9449070511152132 -0.31698737869311044
66428172 0.9441264419673154 -0.32164276939942255
67418896 0.9398203113472682 -0.3245998476956953
68409616 0.9376488040263473 -0.33126211097029284
69400336 0.9372571177789943 -0.3343272674796305
70391056 0.9342881684420501 -0.3392547128352384
71381768 0.9338652627817965 -0.34349726324561075
72372488 0.9331850551730392 -0.347689336510644
73363208 0.9293034144421287 -0.35543680618497947
74353928 0.9300058021145389 -0.3568748325304611
75344648 0.9252838767441892 -0.36247283975711075
76335368 0.9241797024926579 -0.3654122696118183
77326080 0.9236496339994473 -0.3702897821588402
78316800 0.9208218700396408 -0.37662249239668666
79307520 0.9194273149054032 -0.3784037775791026
80298240 0.9178013989143627 -0.38349553730987646
81288960 0.9165690329316806 -0.3878805127974361
82279680 0.9144684561799407 -0.39055521018216105
83270400 0.91123556337841 -0.3983042132611896
84261120 0.9114369698298861 -0.3983836682192463
85251840 0.9089760410563188 -0.40607803140976945
86242560 0.9028259621957291 -0.40942266343587513
87233280 0.9043592611834411 -0.41237664578065253
88224000 0.9004675318762277 -0.41958881940771503
89214720 0.8971124690959554 -0.4205751839098368
90205424 0.897539471328558 -0.4276487794977347
91196144 0.8928875059204929 -0.42991823376862787
92186864 0.8929962800633051 -0.43345484446943755
93177584 0.8882262849046351 -0.4420156125799137
94168304 0.8892940953359753 -0.4424428480868409
95159024 0.8853952118326011 -0.44952710443928806
96149744 0.883117875292526 -0.451429413200236
97140464 0.8825299313640521 -0.45356767278936766
98131184 0.8769421200809234 -0.46187102327956087
99121904 0.8772312148026931 -0.46196604606068087
100112619 0.8747898234764657 -0.46713204520679963
101103338 0.8716085668586367 -0.47316661340157873
102094057 0.8707798253402628 -0.4749880681991723
103084776 0.8663630106807225 -0.481252386530001
104075495 0.8652337696354007 -0.483542040829266
105066214 0.8629262763023604 -0.48744839739457135
106056933 0.8590889308896026 -0.4940252817627016
107047652 0.8584111754880706 -0.49473300496719186
108038371 0.8544267728313336 -0.5018990016005173
109029090 0.8533546572020151 -0.5042055611338778
110019809 0.8507078570297052 -0.5081020995867394
111010529 0.8465608446728267 -0.5143316495030378
112001247 0.8467684449579459 -0.5151364664855959
112991966 0.8419021867950854 -0.5226951150397335
113982686 0.8402936226297252 -0.5238117672837186
114973405 0.8386064394555123 -0.5270629915287509
115964124 0.8334323684841505 -0.5340391962833482
116954843 0.8332738908683107 -0.5351926906145442
117945561 0.8281875720782914 -0.5415238628982789
118936281 0.8274194299558204 -0.5426109620735878
119926999 0.82512622900289 -0.5462759309845995
120917719 0.8211038484476905 -0.5533473283667951
121908439 0.8206064207636851 -0.5533198759132283
122899155 0.8156621365029486 -0.5609413253686565
123889875 0.8141470980223358 -0.5620277316569761
124880595 0.8119854352737671 -0.5649824220860733
125871313 0.8072390027971761 -0.571836573456289
126862033 0.8073146284618499 -0.5720410062587741
127852753 0.8009971572923863 -0.57906390237877
128843471 0.80120187567991 -0.5801275676988235
129834191 0.798526230197117 -0.5834259823649718
130824909 0.7937277296111673 -0.5900123784411743
131815629 0.7929121719801032 -0.589487803413957
132806349 0.7869082993965594 -0.5966659671692651
133797067 0.7869070741068338 -0.5982239310584456
134787787 0.7845938932757105 -0.6005873502191693
135778503 0.7789553922473058 -0.6078165915788017
136769223 0.7787339888012426 -0.6084387385194967
137759943 0.7726953045382664 -0.6148491612171597
138750659 0.7734931233962705 -0.6150361399198657
139741379 0.7703393280275672 -0.6182493179328965
140732099 0.7641328928968287 -0.6250288140255947
141722819 0.7644545130759508 -0.6248767540644043
142713539 0.7588668397581709 -0.6314037985277474
143704259 0.7577625958265274 -0.6320279139953104
144694979 0.7554301478453459 -0.6348587815107878
145685691 0.7498006143069792 -0.6414510703239978
146676411 0.7505079642112653 -0.6409044535724495
147667131 0.74445581331101 -0.6477476844666996
148657851 0.7437445416436504 -0.6478593308722971
149648571 0.7402581673957682 -0.650916045160669
150639287 0.7362149038148021 -0.6570672283901711
151630007 0.7350660049140578 -0.657612584701625
152620727 0.7281660306899331 -0.6643880897411198
153611447 0.7286058406139654 -0.6648005758661613
154602167 0.726526360882172 -0.6673828413524446
155592887 0.72071417315862 -0.6723314774622549
156583603 0.7202405234283606 -0.6740052060982973
157574323 0.7124847499197554 -0.6805512351421104
158565043 0.7135044318927032 -0.6799698940959324
159555763 0.709537155881576 -0.6835104541129876
160546483 0.7045111874459448 -0.6881860567446512
161537199 0.7029296690956857 -0.6888223175835886
162527919 0.6963816680387153 -0.6958940018176248
163518639 0.6977155108395676 -0.6952821514016968
164509359 0.6939141880356519 -0.6987482629951547
165500079 0.6898035505002754 -0.7026787454277739
166490791 0.688159077796645 -0.703326271551811
167481515 0.680654822230328 -0.7106312509447864
168472235 0.6819236673854219 -0.7097755958200301
169462955 0.6770601167180014 -0.7137195964973827
170453675 0.6722088431660755 -0.7181782725738624
171444387 0.6717510318163683 -0.7185036509784546
172435107 0.6641523683080502 -0.7247770375169261
173425827 0.6654333186934093 -0.7236619657709467
174416547 0.6599958592168621 -0.7270816816717033
175407267 0.6564677596236719 -0.731971740375447
176397987 0.656193868332088 -0.732193923619083
177388699 0.6473640505173615 -0.7382866188645933
178379419 0.6487610395378549 -0.7377316502966399
179370139 0.6450721435261919 -0.7410179009077682
180360859 0.6393879787058484 -0.7454395210695147
181351579 0.6395215907844767 -0.7455874956526417
182342299 0.631091983032614 -0.7523137495182307
183333019 0.632896849298069 -0.7521163399169923
184323739 0.6276385347785062 -0.7546710826444714
185314459 0.6233000349819895 -0.7590808573008687
186305179 0.6223573298419153 -0.7594390734114712
187295899 0.6144666750674858 -0.7653294091632851
188286619 0.6149356055107674 -0.7641767864908029
189277339 0.6117081635542655 -0.7676286718464485
190268043 0.6064752440225202 -0.7710653906984368
191258763 0.6066464712696644 -0.7726116051710055
192249483 0.5972839659221425 -0.7784602189522787
193240203 0.5985982368102805 -0.7772750414298394
194230923 0.5932795477593494 -0.7805484159827256
195221643 0.5881401306916942 -0.784939841686246
196212363 0.5868151997943664 -0.7838046401908336
197203083 0.5799049715126664 -0.7893256704091188
198193803 0.5807088213914472 -0.789157273343007
199184523 0.5770015489539951 -0.7927784595904949
200175238 0.5738090863814425 -0.7927970508317106
201165957 0.566365585405468 -0.7993643547770412
202156676 0.5661158613561715 -0.7990016649447633
203147395 0.5620085089532199 -0.8018556267947062
204138114 0.5562273497336531 -0.8056687668612923
205128833 0.5564765144062842 -0.8053880882313186
206119552 0.5473267060805691 -0.8114872895584985
207110271 0.5490621341655461 -0.8101490825591838
208100990 0.5439250441287686 -0.8141453755724292
209091709 0.539407065973334 -0.8160382182442675
210082428 0.5395237905564635 -0.8175077350853188
211073148 0.5305665863148278 -0.8220351242498495
212063866 0.5316401205348016 -0.822001487371921
213054585 0.5269384223438003 -0.8240063898348466
214045305 0.5213402445294973 -0.8264120167689057
215036024 0.5212196352712201 -0.8265956714409914
216026743 0.5115958299863894 -0.8332411339303947
217017462 0.5140857818025738 -0.8317013240905984
218008180 0.509221111576258 -0.83469408161665
218998900 0.5034735668680561 -0.8382450040411649
219989618 0.5041129750457815 -0.8391475921097017
220980338 0.49340124442557876 -0.8441791696923437
221971058 0.49477712748314073 -0.8418619990340387
222961774 0.4909424784299509 -0.8451450016057364
223952494 0.4845488665843299 -0.8477350235731808
224943214 0.4870398464918372 -0.8484254544300409
225933932 0.4752697704507776 -0.8536908557080112
226924652 0.47746117182919695 -0.8537628031277519
227915372 0.47226613107022386 -0.8551795713735739
228906090 0.46723168100163665 -0.8580466192536471
229896810 0.46740047636831933 -0.8578887133134042
230887528 0.4567745774984966 -0.8635623249485831
231878248 0.4603329791806074 -0.8619854110432537
232868968 0.4542561103432198 -0.8645572421965625
233859686 0.44815822341678135 -0.8681326770075647
234850406 0.4486118200552804 -0.8679063084165999
235841122 0.43841886728816615 -0.8727764459175764
236831842 0.4414012996013596 -0.8710842205167909
237822562 0.43601067899768214 -0.8744296162921416
238813278 0.4297893484202086 -0.8759866902349761
239803998 0.4307037821671025 -0.8757406178063742
240794718 0.419591094123292 -0.8809721883353769
241785438 0.42257368085813096 -0.8803149787519091
242776158 0.41612819405348744 -0.882472700894547
243766878 0.41131539472216944 -0.8846244998380032
244757598 0.41189993431931354 -0.8848365951880118
245748310 0.39973784988072864 -0.889408172173586
246739030 0.40388661932428294 -0.8877597242967668
247729750 0.3984329756653896 -0.891624235163929
248720470 0.39269433399141995 -0.8922450070163006
249711190 0.39234626703486536 -0.8925572970951918
250701906 0.38094361359588763 -0.8979118739794498
251692626 0.38511326871747276 -0.896799796328846
252683346 0.38087116879114824 -0.8982619253863964
253674066 0.3741850247816286 -0.9006165038735418
254664786 0.3745524345428806 -0.8996041761557225
255655506 0.3634460889259696 -0.9051980174897875
256646222 0.36745641662829837 -0.9021066370075852
257636942 0.36218618872195724 -0.9047979065108668
258627662 0.35450910361546834 -0.9073059890079425
259618382 0.3556278363834689 -0.9072182873398209
260609102 0.3436968325461616 -0.9109048617007068
261599818 0.3477471020191664 -0.910324240097648
262590538 0.34119335966162484 -0.911676656970817
263581258 0.3354558754049181 -0.9123470900040843
264571978 0.33742950418646356 -0.9131034082381564
265562698 0.32546487475558744 -0.917396964196125
266553410 0.3296398088556264 -0.9176937206480308
267544134 0.3259219661432842 -0.919134718950194
268534854 0.3165738054718167 -0.9206817563510539
269525574 0.31827513110493005 -0.9188005287350115
270516294 0.30839004204870407 -0.923176559272892
271507006 0.3105430843501143 -0.9220177261767059
272497726 0.3051359787248453 -0.9229153076089893
273488446 0.29998313399204646 -0.9262832456035919
274479166 0.2996905895544118 -0.9262234263953385
275469886 0.28921229798593656 -0.9259941273000699
276460606 0.29324129152028783 -0.9267035584881069
277451318 0.28592930119460735 -0.9280314994456397
278442038 0.2810586522304846 -0.9299533489380992
279432758 0.2797097175612294 -0.9307793584552622
280423478 0.2697520304685862 -0.9326312102782915
281414198 0.2756978706253164 -0.9305339925447067
282404918 0.26856286790471195 -0.9339114725711566
283395638 0.26155053070176015 -0.9339401206371796
284386358 0.26344216372460233 -0.9340754305028277
285377078 0.25192868734892865 -0.9387965933864457
286367798 0.2539637344743742 -0.9342505562303374
287358518 0.2489715336799906 -0.9398705864868613
288349238 0.2429275689272368 -0.9398071284833819
289339958 0.2423378462979833 -0.9412236264248952
290330662 0.23238385666962894 -0.9418722822195003
291321382 0.23569606025786086 -0.9417707804714299
292312102 0.22985570522511048 -0.9432564689331505
293302822 0.22432346033389447 -0.942098260288685
294293542 0.22456017895373245 -0.9428368914339728
295284262 0.21058811330380406 -0.9466985940708934
296274982 0.21538467701230926 -0.9439513859484394
297265702 0.21157212728322675 -0.9446286821371687
298256422 0.20625228038962193 -0.9478977868575317
299247142 0.20634790096523156 -0.9468354394703508
300237857 0.19197930592654344 -0.9470577007786496
301228576 0.19147643781614826 -0.9523716211845165
302219295 0.18858915299907522 -0.9445621572451413
303210014 0.18466694881582849 -0.9456560390678311
304200733 0.18305781438120966 -0.9430563083066927
305191452 0.17889140914823248 -0.94641257541061
306182171 0.17114627043302702 -0.9522262334942496
307172890 0.16840986797037533 -0.9516600557496915
308163609 0.15714450244296504 -0.9467910679830974
309154328 0.1642986619388929 -0.9528692578253438
310145047 0.15796917429314877 -0.953013316357628
311135767 0.15035016251835717 -0.9542398003146637
312126485 0.15879856087703287 -0.9524493253896407
313117204 0.13899856996234758 -0.9521519667111945
314107924 0.15587679140642416 -0.9552642960448343
315098643 0.14156909570726128 -0.9532710477209204
316089362 0.13196269770287397 -0.9521729642055884
317080081 0.13456587194546862 -0.952275320869343
318070799 0.1254240928748198 -0.9554118668619791
319061519 0.1310745624514549 -0.9589683066244117
320052237 0.12086368810453826 -0.9571783230895771
321042957 0.12139335077397773 -0.9576556374490206
322033677 0.11500170248683819 -0.957299841142381
323024393 0.1072251993014434 -0.9561172275837864
324015113 0.11429254338411861 -0.9582445750403581
325005833 0.10008367932733886 -0.9600232297376314
325996551 0.09913675660598943 -0.954542390459614
326987271 0.10347237212418411 -0.9568372341926997
327977991 0.08471733250947533 -0.9585661134757638
328968709 0.08666583747818846 -0.9538765199017197
329959429 0.08263816170821213 -0.9533769329924496
330950147 0.08122067251559545 -0.9579351450871479
331940867 0.08196363894417803 -0.9590701991019062
332931587 0.07073677947363095 -0.9580979490800641
333922305 0.07548593013165796 -0.9605139246557415
334913025 0.06842275378604704 -0.9599097493704989
335903741 0.06610157714989183 -0.9645853717196518
336894461 0.06466476805580684 -0.960133722346186
337885181 0.0545144736921219 -0.9636765442850629
338875897 0.05728146960076286 -0.9629135708517563
339866617 0.05042198740167381 -0.960321713705117
340857337 0.05007428313203634 -0.9640966799700398
341848057 0.04960002264919284 -0.9601494030724941
342838777 0.036367286262995596 -0.9633634143932354
343829497 0.043628657787596094 -0.9634331594241177
344820217 0.028865258845136212 -0.9593131235459965
345810929 0.033541212760273255 -0.9628774335369901
346801649 0.025794884680995216 -0.9627393475735917
347792369 0.019494122726004943 -0.9639309363173159
348783089 0.02523969902002991 -0.9576526000435328
349773809 0.014164694683972932 -0.9657246443450094
350764525 0.011424436912631005 -0.9626423175191349
351755245 0.01550924950799303 -0.9667324306937748
352745965 -0.0010631669588474955 -0.9632680334260868
353736685 0.005336907787215516 -0.9636120898926839
354727405 -0.0024593436022929886 -0.9646911962715512
355718125 -0.0047742873233636 -0.9608444458516787
356708841 -0.005779046140133946 -0.9638048970828079
357699561 -0.018295074097813207 -0.9631675192269384
358690281 -0.010530333839882673 -0.9660782916811338
359681001 -0.01911050722632471 -0.9666753011851271
360671721 -0.02211596817921274 -0.9633308754039364
361662437 -0.024206010241328513 -0.9615238875583475
362653157 -0.033356578057397564 -0.9665401478245492
363643877 -0.024516732333044036 -0.9663144246118538
364634597 -0.033219012162130496 -0.9654325816048953
365625317 -0.036030408852497434 -0.9634912780423329
366616029 -0.04079025415078503 -0.9636748297215781
367606753 -0.0521046941684516 -0.9603961139297287
368597473 -0.047519643352802836 -0.9609599179645336
369588193 -0.04706682787816428 -0.9653496562489225
370578913 -0.055818554337036 -0.9617957852262683
371569625 -0.050411061123186995 -0.964809334654752
372560345 -0.07233888602096142 -0.9648574354644665
373551065 -0.05661289010309736 -0.9626073155602933
374541785 -0.0652086539667416 -0.963758048746238
375532505 -0.06534697161595952 -0.9635674018206033
376523225 -0.06650628878046808 -0.9673183715429364
377513937 -0.07843847232655986 -0.9623260439063555
378504657 -0.07252502675276218 -0.9595378447740361
379495377 -0.08029101062789633 -0.9612771037830407
380486097 -0.08608354526906987 -0.9589954270028241
381476817 -0.08626137466442503 -0.9595927775873009
382467537 -0.0929524858134506 -0.9553956842651254
383458257 -0.08686601713983282 -0.9585757130514496
384448977 -0.09285202567837787 -0.9611465986761566
385439697 -0.09629819327595439 -0.9538796002333826
386430417 -0.09875622279742764 -0.9539017828856955
387421137 -0.11236418057414291 -0.953474002142849
388411857 -0.10751373735552686 -0.9556220345729605
389402577 -0.11287251394882099 -0.9529631215128033
390393281 -0.11656516078537645 -0.9534292406723694
391384001 -0.10814556068635021 -0.9530316255757035
392374721 -0.12430868562258432 -0.9529211414557975
393365441 -0.11730731588824339 -0.9511358040858587
394356161 -0.12518037961212986 -0.9495546993902616
395346881 -0.12903072238992205 -0.950847914314799
396337601 -0.12890946353593155 -0.9489194210027296
397328321 -0.14039161286109553 -0.9490647523113297
398319041 -0.13585831498122497 -0.9491183840968792
399309761 -0.1359640888459868 -0.9422132543584798
400300476 -0.1377056776331169 -0.9462780885075422
401291195 -0.15172697312515038 -0.94541601683336
