# Hz S RI R 50
50000 0.9993278591697551 0.0004285288168917544
1040719 0.999106325611821 -0.010611538922699844
2031438 0.9994741679150505 -0.02013413745943698
3022157 0.998856612050397 -0.030697021864802693
4012876 0.9986592966365382 -0.03999313923141853
5003595 0.9977322229759575 -0.05022228603756998
5994314 0.997225062325416 -0.06023312471033242
6985033 0.9967349319319848 -0.06955024253784499
7975752 0.9956729875121629 -0.08155427754926627
8966471 0.9951374758094743 -0.08898295334133459
9957190 0.9939189674965692 -0.09965183065622932
10947910 0.9928569808609427 -0.11006538165845833
11938628 0.9916181270114369 -0.11877323890699124
12929347 0.9902864791595661 -0.13147917887670113
13920067 0.9892875709983807 -0.138747579353977
14910786 0.9874482549723623 -0.14914810459855032
15901505 0.9856289154778469 -0.1597920097020675
16892224 0.9843692904211154 -0.16735821940900136
17882942 0.9817168697288494 -0.18150193853346933
18873662 0.9808017063404201 -0.1869318651920376
19864380 0.9786865428318829 -0.19766548816288973
20855100 0.9760095231735004 -0.2083455125178971
21845820 0.9744712479697492 -0.21572650029287666
22836536 0.9709760680025082 -0.23057509372539284
23827256 0.9701211620695801 -0.23520605454084748
24817976 0.96705920353354 -0.24530983032406609
25808694 0.9637890966996049 -0.2569461800815692
26799414 0.96218280271533 -0.26287753385248197
27790134 0.9572571338760358 -0.2785930849859368
28780852 0.9568477009348347 -0.2818550374770886
29771572 0.9533905211003492 -0.2927918901025016
30762290 0.9495383867742453 -0.3042344745673914
31753010 0.9475875796814223 -0.30914985151990604
32743730 0.9419171074089232 -0.32556486453561667
33734448 0.9416234182537104 -0.32818439932587046
34725168 0.937265863513367 -0.3389906755645167
35715884 0.9327162004912521 -0.3497945264806272
36706604 0.9300923326237085 -0.3545839448699821
37697324 0.9244293347203114 -0.37180823531705076
38688040 0.9238161880692785 -0.37242775779227677
39678760 0.9186952554720348 -0.3834430643448272
40669480 0.9137451829678205 -0.3946172171268347
41660200 0.9122018200371459 -0.39813649644006144
42650920 0.9032557398036873 -0.41603323488953603
43641640 0.9043215869518643 -0.41631801942947105
44632360 0.8978107716560901 -0.4267287163786835
45623072 0.8928358318396187 -0.4366195766138278
46613792 0.891593491522094 -0.44050401901004627
47604512 0.8815421001678914 -0.45897095583880637
48595232 0.8816286784226851 -0.45831465864509124
49585952 0.8765478034170742 -0.46831219005255464
50576668 0.8697623309385709 -0.4794112628951069
51567388 0.8686791164391598 -0.4821760495584887
52558108 0.8568167513836462 -0.5004987407126505
53548828 0.8583103904729115 -0.49853546938354065
54539548 0.8523609764009182 -0.5091621583196618
55530268 0.8463462432817743 -0.5210961826870346
56520984 0.8434821206821177 -0.5210008758176894
57511704 0.8317578773190385 -0.5401567404498958
58502424 0.832469346606532 -0.5383501128453195
59493144 0.8259181403926751 -0.5477056597877556
60483864 0.8187476741006801 -0.558538905490218
61474580 0.8191897303599719 -0.5593285766932294
62465300 0.8043391764036345 -0.5780566547323227
63456020 0.80648474563946 -0.5758134007571484
64446740 0.7994134378514987 -0.584556472116209
65437460 0.7914076398684807 -0.5955382936581634
66428172 0.790475424523258 -0.5969063896751384
67418896 0.7738008064888284 -0.6144547062017002
68409616 0.7783486146928994 -0.6100477419193302
69400336 0.7690454714627326 -0.620971441384402
70391056 0.7614477170804137 -0.6297006067532869
71381768 0.7619611596916344 -0.6301129212030042
72372488 0.7445970354596265 -0.6488156399637283
73363208 0.7482385870942323 -0.6443982727710548
74353928 0.7407693068344822 -0.653450627114583
75344648 0.73094215563666 -0.6637023709081568
76335368 0.7324919795079479 -0.6624551822432764
77326080 0.7144257493358599 -0.6817560163088203
78316800 0.7192431538202559 -0.6762594342849549
79307520 0.7096919991241152 -0.6843376778691292
80298240 0.7011899374159793 -0.6938663289139079
81288960 0.7020771792566247 -0.6932800868170056
82279680 0.6820550009720359 -0.7108826762715773
83270400 0.6879409705750084 -0.7057341209051365
84261120 0.6796627304295694 -0.7137674343579083
85251840 0.66839787804855 -0.7228342852044383
86242560 0.6685730182361928 -0.7202291124241298
87233280 0.6496655113922306 -0.7398049357886234
88224000 0.6548575984821428 -0.7335736966978448
89214720 0.6440911727342644 -0.7399990588696832
90205424 0.6351787379931827 -0.7508099179397163
91196144 0.6352975254881768 -0.7476338012136989
92186864 0.6142057187013545 -0.765724704306999
93177584 0.6207741471597881 -0.7604589545847399
94168304 0.6113934872286232 -0.7684462768362585
95159024 0.599794514085494 -0.7769602089927221
96149744 0.6016791095537127 -0.7732567190144031
97140464 0.5797878736937313 -0.7894398812242597
98131184 0.5874990987250875 -0.7847788072414723
99121904 0.5781707511533266 -0.7913682974508134
100112619 0.5743963862720457 -0.7943812163330551
101103338 0.5514434880817335 -0.8090952677809025
102094057 0.5609281341588143 -0.8031076042014436
103084776 0.5431182288298866 -0.8141892684946959
104075495 0.5434131190722615 -0.814187475643723
105066214 0.5413611763494959 -0.8155290526074668
106056933 0.5169252028099274 -0.8302143422237168
107047652 0.5281749817660412 -0.8237177467449891
108038371 0.5083942552005764 -0.835024947890288
109029090 0.509056176004347 -0.835052920059396
110019809 0.5060550535629822 -0.8366300314012611
111010529 0.4809849472855318 -0.8499058029419279
112001247 0.49411992820566925 -0.8447768745154698
112991966 0.4735055025129837 -0.8548875979668251
113982686 0.4738516880085412 -0.8536579244263752
114973405 0.4727849657935096 -0.8549809352846609
115964124 0.4461303330880219 -0.8674977322239201
116954843 0.4581888199366562 -0.8620535315892116
117945561 0.4385994637805561 -0.8717482684687392
118936281 0.4392171434304221 -0.8711279627676829
119926999 0.43759610375364627 -0.8713866862230996
120917719 0.4112077382197864 -0.8839285978721689
121908439 0.42538147939787296 -0.8776091404568727
122899155 0.4035762012968116 -0.8873967313816268
123889875 0.4049047153969358 -0.88620329434872
124880595 0.4038739992671783 -0.8866439709891791
125871313 0.3757929314720228 -0.8974146925100268
126862033 0.3900677427528922 -0.8925133059632847
127852753 0.36917797383613227 -0.9010982821139671
128843471 0.37114716512144813 -0.9002883789270203
129834191 0.3689375434099704 -0.9000326101104762
130824909 0.3414051910482077 -0.9101630016317529
131815629 0.3564350638814044 -0.9048932353437027
132806349 0.3334925781340984 -0.9110946119700762
133797067 0.3356877055678476 -0.9123755640127909
134787787 0.33544112653257097 -0.9118583537057864
135778503 0.3062825242788841 -0.9219671890588034
136769223 0.32110561825643996 -0.9158747746087341
137759943 0.3003662083029792 -0.9234089018145121
138750659 0.3028149533753407 -0.9219141829464512
139741379 0.301858921852042 -0.9222533947367578
140732099 0.2719501455982279 -0.9303411851432796
141722819 0.28954148642142635 -0.9262433460469155
142713539 0.26646282726648707 -0.9314311002366791
143704259 0.26788795644650365 -0.9312293598957461
144694979 0.2683704800998104 -0.9313267902010341
145685691 0.23690062651138524 -0.9380806929197782
146676411 0.256052396570497 -0.9345869192107392
147667131 0.2339072657156654 -0.938867144847342
148657851 0.23507852354178405 -0.9395097550888294
149648571 0.23510429753071677 -0.9394360453622289
150639287 0.20664377622548072 -0.9451158251155184
151630007 0.22223567221147822 -0.9417330779580325
152620727 0.19700430992274637 -0.9460101025264563
153611447 0.20344299354040885 -0.9454027914567905
154602167 0.20181877800176995 -0.9443632553193149
155592887 0.17275656888138027 -0.950510524564233
156583603 0.18835049866540582 -0.9481663395637109
157574323 0.16354189092317364 -0.9511396961668841
158565043 0.16985005282524185 -0.9501579552169656
159555763 0.1692839985497474 -0.9506222432981628
160546483 0.13998987130577367 -0.9539156145273764
161537199 0.15559671934889932 -0.9517905606525564
162527919 0.131213011733482 -0.9550265245395709
163518639 0.13879135364210074 -0.9544556293920283
164509359 0.13822737249521855 -0.9547510023710523
165500079 0.10962950364434401 -0.9573425016571151
166490791 0.12558808563976093 -0.954822047034861
167481515 0.10017235267665824 -0.9570333450295222
168472235 0.10837608235029997 -0.9570277366423537
169462955 0.10562914356257433 -0.9568839534881874
170453675 0.07589669874146009 -0.9586601143798409
171444387 0.09324193682510881 -0.9583772406793409
172435107 0.06747665305114771 -0.9580908823277448
173425827 0.07584846904095491 -0.9590775361374612
174416547 0.07427673255924429 -0.957607813755836
175407267 0.04489599974199808 -0.9608422969741507
176397987 0.06361916173341581 -0.9595660247358984
177388699 0.03897212507229276 -0.9594384663478077
178379419 0.046237879034489754 -0.9596811199922403
179370139 0.04580088247142823 -0.9595217041353064
180360859 0.01445118732856544 -0.9591701631475367
181351579 0.033647744141249554 -0.9596810463190679
182342299 0.00860342639050847 -0.9591245349749963
183333019 0.015626423757566316 -0.9606000164392448
184323739 0.014384347254152788 -0.9592259124276189
185314459 -0.014646383947389851 -0.9587652031880403
186305179 0.0037489937723086285 -0.9594284966060338
187295899 -0.02083589168129294 -0.9582475571122833
188286619 -0.014375515689426103 -0.9575641773951519
189277339 -0.014531526283098728 -0.9591395520646664
190268043 -0.043446118913606585 -0.956984916812277
191258763 -0.025264107940526526 -0.9589358895240611
192249483 -0.049648323757751495 -0.9563289780441286
193240203 -0.04326507997481653 -0.9572470738262107
194230923 -0.04339803617082173 -0.9568375349811219
195221643 -0.07399417094100025 -0.9545127972354176
196212363 -0.05468348197749147 -0.9551818097864639
197203083 -0.07738044090397073 -0.9533804894076113
198193803 -0.07140042483299991 -0.9542007098886318
199184523 -0.0711356569675405 -0.9549352397859242
200175238 -0.1022234389881677 -0.9491848059581276
201165957 -0.08273701080229828 -0.9536574225918928
202156676 -0.09510728825533687 -0.9509681047526618
203147395 -0.10775631108548443 -0.9495972555893141
204138114 -0.09812737932868093 -0.9511590665171082
205128833 -0.12916008409269245 -0.9458875439303434
206119552 -0.11123705594411575 -0.9497041277315136
207110271 -0.12088993444791647 -0.9474560637811633
208100990 -0.13595207744578658 -0.9451928101336198
209091709 -0.12378181329737817 -0.9465515070047162
210082428 -0.1557879189859244 -0.9429224973616092
211073148 -0.13678707813441607 -0.945223860155634
212063866 -0.14790495167541448 -0.9435769684727587
213054585 -0.16140716570738842 -0.9406950670687777
214045305 -0.15014933235323 -0.9421455529261705
215036024 -0.18153734053105325 -0.9353788805746027
216026743 -0.16399117193927118 -0.9401073664532842
217017462 -0.17316521701757656 -0.9380554889165524
218008180 -0.1872970204871582 -0.9351355612753866
218998900 -0.176577868805934 -0.9375607391064696
219989618 -0.20791144799711864 -0.9313197154479482
220980338 -0.1904356669341449 -0.9349266231876903
221971058 -0.19893062534639983 -0.9320766060331297
222961774 -0.21224925268805103 -0.9284318205359504
223952494 -0.20167258008474592 -0.9309840678005277
224943214 -0.23133604372201963 -0.9251156222865099
225933932 -0.21371810696101637 -0.9297478319482205
226924652 -0.22445298338264552 -0.9277346822059239
227915372 -0.2373021371388875 -0.9226538315397136
228906090 -0.22576288956140841 -0.925165033496598
229896810 -0.2560450606808786 -0.9170305201314388
230887528 -0.23922969319688211 -0.9233360473223432
231878248 -0.24709481794302798 -0.9203306075748562
232868968 -0.2613377964631502 -0.9153889793531568
233859686 -0.25079566912134665 -0.9192689431573803
234850406 -0.28070391994528765 -0.9101709993110195
235841122 -0.2633329211886653 -0.9156577561260567
236831842 -0.2713324141432432 -0.9131652394173544
237822562 -0.2846009415164597 -0.9087699903572135
238813278 -0.2739684542792157 -0.9115755707542075
239803998 -0.3017594151610985 -0.9010288006326341
240794718 -0.28522499851533645 -0.9080222942788353
241785438 -0.293551223538018 -0.9055142895047567
242776158 -0.30772187582204763 -0.8998703517436164
243766878 -0.2969266894374006 -0.9045585873999712
244757598 -0.3254219193162439 -0.8947070831870841
245748310 -0.3082912111448417 -0.9001029219119876
246739030 -0.315410555337433 -0.8976230512084835
247729750 -0.3297154237647899 -0.8923277450805162
248720470 -0.31868387799034265 -0.8955877157822203
249711190 -0.34714322138781173 -0.8847152935076126
250701906 -0.3308275220868826 -0.8914384446998507
251692626 -0.3381511976184622 -0.8899655382266187
252683346 -0.3507582674456072 -0.8838860102361245
253674066 -0.33962577855049125 -0.888216963851662
254664786 -0.3669944018381937 -0.8771344233659841
255655506 -0.35114160812242273 -0.8849523572503841
256646222 -0.3569484680463452 -0.8800818100838491
257636942 -0.3707855131299245 -0.8757707439709683
258627662 -0.36134622335585703 -0.8797265693547532
259618382 -0.38825299627053905 -0.8661247766832594
260609102 -0.3721207317491412 -0.874693083343853
261599818 -0.37892008705705743 -0.8700301437562213
262590538 -0.39194777023789407 -0.8638028365091714
263581258 -0.3806999038993601 -0.8696845881543585
264571978 -0.4072682587164259 -0.8569246908766782
265562698 -0.39108199162984375 -0.8650505161877986
266553410 -0.39854705650511907 -0.8627957142485623
267544134 -0.4104413820183808 -0.8561825108694459
268534854 -0.40154908127546735 -0.8595739229086418
269525574 -0.42546090387567076 -0.8474937567055851
270516294 -0.4097179473248808 -0.8567660146395893
271507006 -0.417379525326486 -0.8513646211284226
272497726 -0.42951992005532924 -0.844347997723994
273488446 -0.41901830884709546 -0.851535781283384
274479166 -0.44633970244601145 -0.8386042783256805
275469886 -0.42780616659629644 -0.8450705390088585
276460606 -0.434598913284981 -0.8428037723242324
277451318 -0.4480761050394515 -0.8346947019713853
278442038 -0.4375136452838723 -0.8406923103281221
279432758 -0.46356325232377243 -0.8256664889867541
280423478 -0.446776007984869 -0.8354853705185444
281414198 -0.45252371641859124 -0.8321982842222396
282404918 -0.46602270280286473 -0.8251367502996614
283395638 -0.455530987381807 -0.8302022463740677
284386358 -0.47918959211651746 -0.81542935646935
285377078 -0.46491573458315466 -0.8263780392950354
286367798 -0.4706007583803012 -0.8203744601946555
287358518 -0.4841168544995364 -0.8125999573496739
288349238 -0.47296916322103716 -0.8200815699781329
289339958 -0.4977806584698707 -0.8054724671954069
290330662 -0.48209122306901486 -0.8147808967976375
291321382 -0.4888635386707221 -0.8115441401305727
292312102 -0.5014829177520349 -0.8016570480187185
293302822 -0.48960674297724904 -0.8084613524816938
294293542 -0.5133663728340744 -0.79274682443826
295284262 -0.5006651874660375 -0.802464891066517
296274982 -0.5042679927667316 -0.7978591195319409
297265702 -0.5163782452785393 -0.7902264519318767
298256422 -0.5060218699843219 -0.799129375979847
299247142 -0.529104977861972 -0.7829694013115654
300237857 -0.5242767836273781 -0.7861896258166752
301228576 -0.5364639222080849 -0.7860073833648046
302219295 -0.539732355065104 -0.7766808896823352
303210014 -0.5262527535074626 -0.7849968544017505
304200733 -0.5537018652254988 -0.7667403033392828
305191452 -0.5362583439220491 -0.7803769336622152
306182171 -0.548579233987132 -0.7730650790358117
307172890 -0.5583068291928963 -0.7677943043597851
308163609 -0.5438497486584863 -0.773152922237013
309154328 -0.5685695638242863 -0.7590604338953946
310145047 -0.5540218723655175 -0.7670952637295787
311135767 -0.5670247103394976 -0.7599506119817365
312126485 -0.5690424724291061 -0.7586788660186491
313117204 -0.5640132116589874 -0.7596881150530604
314107924 -0.5825175692257075 -0.7511260162679222
315098643 -0.567113688503773 -0.7562313560510255
316089362 -0.5790340903079072 -0.7479213390220484
317080081 -0.5848384469951459 -0.7434782470284473
318070799 -0.5764539863339152 -0.7533547096727975
319061519 -0.6004248789661435 -0.7390314237110676
320052237 -0.5847373206056384 -0.7476863534867254
321042957 -0.5917627403360254 -0.7433248321648077
322033677 -0.5995516193333645 -0.7347904977831692
323024393 -0.5893065181524776 -0.7420851421765673
324015113 -0.6126934824714336 -0.7263603742416183
325005833 -0.60322902592602 -0.7356451005450277
325996551 -0.6022502545745765 -0.7262002825939269
326987271 -0.6108084227573203 -0.7267150487110691
327977991 -0.6069036498901146 -0.7294195916272841
328968709 -0.6235390205225454 -0.7074097179108617
329959429 -0.6093892630816083 -0.7199132081865491
330950147 -0.6178543137284295 -0.7209140022926399
331940867 -0.6231874280970785 -0.714186679795466
332931587 -0.6206702653295052 -0.7216222273454876
333922305 -0.6375425051690474 -0.7076537299472538
334913025 -0.6232954491014375 -0.7169319918303705
335903741 -0.6337784918881527 -0.7138351608317948
336894461 -0.6370201914926178 -0.7028207185988504
337885181 -0.6339592108825987 -0.7128205653857523
338875897 -0.6554730403391326 -0.6953638918954842
339866617 -0.6388702037514181 -0.7082475100928493
340857337 -0.6435100516166712 -0.701400968455316
341848057 -0.6486437205461508 -0.6993434374498195
342838777 -0.6451892413851402 -0.7029479471046344
343829497 -0.6604608950610973 -0.6856060423178576
344820217 -0.6479872262243024 -0.6917206370383545
345810929 -0.6540067487960399 -0.6941274641274396
346801649 -0.6685587705434365 -0.6808579293523761
347792369 -0.6558978332381873 -0.6915478241619792
348783089 -0.6722115231729482 -0.6729099538853275
349773809 -0.6647122687992415 -0.6863290435412116
350764525 -0.6677844004760941 -0.6766332114691468
351755245 -0.6780088907220818 -0.6770524560103541
352745965 -0.6663852423308325 -0.6789398602059968
353736685 -0.6860332246189823 -0.6608470692725846
354727405 -0.6726463915677743 -0.6753999693513437
355718125 -0.6825456203414983 -0.6659713933805858
356708841 -0.6866624979436959 -0.6611235847537162
357699561 -0.6829833073077407 -0.6675134557315895
358690281 -0.7011692963962991 -0.6533691500797552
359681001 -0.6856079391881803 -0.6687536195907577
360671721 -0.6895462067823338 -0.6583766321520734
361662437 -0.6974098517930173 -0.6520810485078784
362653157 -0.6927776223602058 -0.6634661422518656
363643877 -0.7099067331634253 -0.6448179606483772
364634597 -0.6930588383238439 -0.6585519872352438
365625317 -0.6996657547172721 -0.6509563001413241
366616029 -0.7102518162080587 -0.6365484779285879
367606753 -0.7003867619448143 -0.6483331615169846
368597473 -0.7173571398026146 -0.6259460915973568
369588193 -0.7073368998313567 -0.6496779829096082
370578913 -0.7105224003847495 -0.643263213746871
371569625 -0.7156792297697593 -0.6323684423836303
372560345 -0.7144744051335068 -0.6387436501349464
373551065 -0.7244358456681896 -0.6239525220931288
374541785 -0.7142591561529564 -0.6365138888957921
375532505 -0.7188273378549613 -0.6329814389236511
376523225 -0.7237510447200443 -0.6235218368676775
377513937 -0.7177692129346611 -0.6308030185374128
378504657 -0.7326622231840109 -0.6110117300907257
379495377 -0.722138587336373 -0.624900208410011
380486097 -0.7271963836294348 -0.6178107674995215
381476817 -0.7340630129394727 -0.6099665354181262
382467537 -0.7223703491804204 -0.6190186235692213
383458257 -0.7396925118010782 -0.5983158672702232
384448977 -0.731553045320919 -0.6174371332818654
385439697 -0.731590350762959 -0.6058856513489473
386430417 -0.7388329887976244 -0.599430020579651
387421137 -0.7333747442519546 -0.6078975410415844
388411857 -0.7506994206029524 -0.587256771416693
389402577 -0.7345718603818766 -0.6006445504882744
390393281 -0.7415129839655782 -0.5950594626861788
391384001 -0.7461367603857418 -0.5928102433665854
392374721 -0.7399770347674647 -0.5969766473323793
393365441 -0.7543549896322576 -0.577400043875239
394356161 -0.7434933399323544 -0.5905756228911887
395346881 -0.7468267464285051 -0.5838117314261884
396337601 -0.7530500244110155 -0.5766063775959522
397328321 -0.746843766337777 -0.5866605615187744
398319041 -0.7626192662845481 -0.5648237257322674
399309761 -0.7502154642011278 -0.5779309113706715
