# Hz S RI R 50
50000 0.9990556168617117 0.0002892257597035895
1040719 0.9985979285103549 -0.010024586775135041
2031438 0.9990724017956105 -0.019796543834104386
3022157 0.9982684098471458 -0.028515927997761942
4012876 0.9983591031606206 -0.03824869829863675
5003595 0.9976221863051067 -0.0478452585223975
5994314 0.9968066248806797 -0.0567672445225949
6985033 0.99643663444295 -0.06820345802723628
7975752 0.9957095538180125 -0.07584751791706597
8966471 0.9951155478155568 -0.08617314076465162
9957190 0.9941265816796098 -0.09543179834525536
10947910 0.9935300169413626 -0.10390880955378637
11938628 0.9918332040350466 -0.11618518629906836
12929347 0.9911649191862049 -0.12279254081484844
13920067 0.9894486754498169 -0.1339184498912166
14910786 0.9882345710197841 -0.14294566471063275
15901505 0.9870545378580721 -0.1510417171207521
16892224 0.9848119474092863 -0.16359977244556828
17882942 0.9840803987799541 -0.1694513339705558
18873662 0.9816239518663646 -0.1805555314519131
19864380 0.9801396011990965 -0.18963778510695137
20855100 0.9780997051255446 -0.196920366654123
21845820 0.9753194415014512 -0.21110719276101686
22836536 0.9743611768832898 -0.21566552672832331
23827256 0.971656949971353 -0.22737851136152487
24817976 0.9695176080655357 -0.2353105583900069
25808694 0.9674023655982741 -0.24271156724567727
26799414 0.9635857831592552 -0.2573019860043198
27790134 0.9623177851194515 -0.26103314278392203
28780852 0.9590470340360455 -0.2728810323810488
29771572 0.9564757721323465 -0.2807544524561289
30762290 0.9545235110257134 -0.28750669209521473
31753010 0.9495242511847558 -0.3028078556409086
32743730 0.9486469154895674 -0.3052375524740356
33734448 0.9446997282065092 -0.3175541500178164
34725168 0.9421534350455844 -0.32541039475606454
35715884 0.9395789258437276 -0.331312226446671
36706604 0.9327671982822046 -0.34803635344365386
37697324 0.9330760834064141 -0.348967229702615
38688040 0.9280303726268907 -0.3610475848572467
39678760 0.9245678002410286 -0.36858388858955665
40669480 0.9223598503568214 -0.3742853921807968
41660200 0.915320119713448 -0.3905597793020508
42650920 0.9148257240518675 -0.39107763039738763
43641640 0.9095587814695568 -0.403921755128482
44632360 0.9057534049221152 -0.4104295176139855
45623072 0.9032124996221935 -0.4141179891404836
46613792 0.8952236710819023 -0.4319841402745758
47604512 0.8957359315847829 -0.4316493059979868
48595232 0.889269379232018 -0.44430423475477676
49585952 0.885901467844234 -0.4510646221682933
50576668 0.8827386851599486 -0.45569605581003036
51567388 0.873740652787278 -0.47290837945422326
52558108 0.8736804768781143 -0.4717441420439467
53548828 0.8669414592833018 -0.4838387555565865
54539548 0.8630677891074694 -0.4906219757273666
55530268 0.8621552267108853 -0.4957171330235613
56520984 0.8492334901190187 -0.511948263593725
57511704 0.85192257091376 -0.5086976037321554
58502424 0.843087660446348 -0.5223312606465357
59493144 0.8386902792989656 -0.5286066158771164
60483864 0.8367575941210186 -0.5327405227210816
61474580 0.8259724696911067 -0.5496825668581248
62465300 0.8262941946260765 -0.5472590230479416
63456020 0.8179715330706193 -0.5597597353139621
64446740 0.8138605419157777 -0.5654372056939905
65437460 0.8121422544786884 -0.5674518097777058
66428172 0.7974471582915648 -0.5864270040614076
67418896 0.7995675172680207 -0.581798979310566
68409616 0.7912931728447861 -0.5932713972127696
69400336 0.7849766500403496 -0.5999888578210036
70391056 0.7842525311689276 -0.6021663528475507
71381768 0.7705032698362976 -0.619883272742824
72372488 0.7732592197375644 -0.6157552050008874
73363208 0.7628047974437674 -0.6271790125382699
74353928 0.7590724138161722 -0.6331668992628641
75344648 0.7558444409656242 -0.634594591119459
76335368 0.7412742464234794 -0.6516612732687753
77326080 0.7453155545430895 -0.6480884788514621
78316800 0.7355279830927457 -0.6592152407743949
79307520 0.7301354648057226 -0.6635456973184207
80298240 0.7294065952667402 -0.6652127738156796
81288960 0.7123575211916842 -0.6830245579838659
82279680 0.7169476501661095 -0.6770449262938346
83270400 0.7063237932904216 -0.6879149298860202
84261120 0.7013115041756905 -0.6935978230533063
85251840 0.698698645991571 -0.6949916259427881
86242560 0.6778310021050937 -0.7114365841176928
87233280 0.686604445163504 -0.7068192554974035
88224000 0.6745702816958745 -0.7164106307591835
89214720 0.6684901856754105 -0.719560198894662
90205424 0.66902355613876 -0.7231121843759984
91196144 0.6474976824303051 -0.7380022723429102
92186864 0.6541235178551069 -0.7327384627123126
93177584 0.6413998099281989 -0.7440584411186827
94168304 0.6372878348473154 -0.7481873118410215
95159024 0.6355921835422808 -0.7497374797494234
96149744 0.6146549155286646 -0.7633777110377254
97140464 0.6230917005522288 -0.7575997472463363
98131184 0.6095838735922131 -0.7683717165084024
99121904 0.6057779439125385 -0.771060888642802
100112619 0.5935338738500938 -0.7806104055929477
101103338 0.5985704471421832 -0.7769306552912718
102094057 0.5769521066010378 -0.791925376566221
103084776 0.5838713468371582 -0.7869683648202423
104075495 0.5751233631250049 -0.7932057745010511
105066214 0.5616145100063753 -0.8024226607114304
106056933 0.5654588088893248 -0.7996363586174682
107047652 0.5436582575788679 -0.814037859771172
108038371 0.5510191115574059 -0.8092654880302808
109029090 0.5426635177338472 -0.8147290397543552
110019809 0.5279357387186746 -0.8236532081919182
111010529 0.5321407369277061 -0.8209113495590531
112001247 0.5105896902139315 -0.8341484713641266
112991966 0.5173450257844168 -0.8305936075374092
113982686 0.5091490015390615 -0.8338917466360175
114973405 0.49464135401310105 -0.8428956223814257
115964124 0.4994347952059911 -0.8399087730919214
116954843 0.47538729939447444 -0.8531238194749431
117945561 0.4840223836125026 -0.848235781270078
118936281 0.4761851158575346 -0.8524568065785821
119926999 0.46093519477228034 -0.860645548391473
120917719 0.4676955550227066 -0.8583098879614789
121908439 0.44343049337374496 -0.8689608576292522
122899155 0.45131235734243874 -0.8656803815929509
123889875 0.44329591250691863 -0.8688478435448865
124880595 0.4278305006296244 -0.8759880089776991
125871313 0.4339202607138329 -0.8725074092565168
126862033 0.40975736693218107 -0.8847988151642983
127852753 0.41795821836775376 -0.8799195150108793
128843471 0.4106935948771884 -0.8827782852823338
129834191 0.39353672522699296 -0.8896571413573374
130824909 0.40096359125193043 -0.8868789566247713
131815629 0.3755113052427286 -0.8967612390258177
132806349 0.38571982728230186 -0.8939274883086867
133797067 0.3772324942772998 -0.8970358228005219
134787787 0.3601546927106086 -0.9028235241209155
135778503 0.3679605440690337 -0.900098959353123
136769223 0.3413677161384112 -0.908888791204984
137759943 0.3517902787868499 -0.9055119250120425
138750659 0.3452529421456959 -0.9078524057408721
139741379 0.32771347244482035 -0.9148413999149942
140732099 0.33580627653008277 -0.9114169604457327
141722819 0.30965999272831707 -0.9195652350566156
142713539 0.3195509460155425 -0.9171863507894011
143704259 0.3121653446679949 -0.9191636194317476
144694979 0.2939497014664951 -0.9239004173982232
145685691 0.30216083770798086 -0.9213737965793231
146676411 0.2771980083508547 -0.9286212314717803
147667131 0.2874528306238355 -0.925893963752209
148657851 0.27989270900740315 -0.9274875289041821
149648571 0.2609418088153835 -0.9328951159018802
150639287 0.2711734276330107 -0.9303883956381415
151630007 0.24160744740055043 -0.9367431794083559
152620727 0.25726126715388253 -0.9331841749092238
153611447 0.24000814843119575 -0.9371639484910597
154602167 0.23624115807126658 -0.939411431232901
155592887 0.23785885238041576 -0.9377028211097937
156583603 0.20875403155981914 -0.9441507516289944
157574323 0.22462074143973076 -0.9401821614419436
158565043 0.20844533606467763 -0.9437327257828881
159555763 0.20434751035961293 -0.9440543861966166
160546483 0.2065624169114347 -0.9434335705386881
161537199 0.17656107315387287 -0.9499622878299496
162527919 0.19340128709214846 -0.9459058388062918
163518639 0.17705713615065083 -0.9485307173755405
164509359 0.17347224405384473 -0.9499004592611949
165500079 0.17654084485508054 -0.948547141269446
166490791 0.14614254302101265 -0.951673840705879
167481515 0.16231567167607822 -0.9505602236524119
168472235 0.14607790721899924 -0.9527049140231927
169462955 0.14107768116146815 -0.9530103897159572
170453675 0.14433553122335926 -0.9523312095082764
171444387 0.1147540151537106 -0.9557608331714821
172435107 0.13075929580711854 -0.953420445919783
173425827 0.11614675005840316 -0.9555681837791893
174416547 0.11147289674766613 -0.9547232517162366
175407267 0.1139172294790189 -0.9555910044161309
176397987 0.08450710095197007 -0.9578361741148887
177388699 0.10175152352640145 -0.955662945585287
178379419 0.08591856372788782 -0.957357884198565
179370139 0.08115301263659185 -0.9569967824454244
180360859 0.08366131167972657 -0.9572768221626207
181351579 0.05497713757552352 -0.9585573891802903
182342299 0.07203985163584868 -0.9578601589232454
183333019 0.05637348839855386 -0.9595769560113221
184323739 0.050710207227655985 -0.9587620409479991
185314459 0.0551316114247596 -0.9587576864330695
186305179 0.025345002414463424 -0.9588079058710743
187295899 0.04270218787553485 -0.9588603605816514
188286619 0.026659747580610037 -0.957726894209724
189277339 0.021575880960748414 -0.9588229652592648
190268043 0.02661967077705125 -0.9591636653813752
191258763 -0.0040816385243289685 -0.9585291369789855
192249483 0.013891379953279204 -0.9590997848694783
193240203 -0.002241628424714775 -0.9583336584882283
194230923 -0.007633725811661488 -0.9575509290302029
195221643 -0.0034085287608044816 -0.9582797485591049
196212363 -0.03326574428762488 -0.9552532061107889
197203083 -0.014225989808277544 -0.956719662254756
198193803 -0.029987894367505 -0.956578736084775
199184523 -0.03596174966789616 -0.9565655215552323
200175238 -0.03265316608574356 -0.955087062858238
201165957 -0.055305082152592666 -0.9554095778456637
202156676 -0.04342110149462411 -0.9551911751458949
203147395 -0.06752071012812057 -0.9531975334627776
204138114 -0.05744696100721492 -0.9538763343626203
205128833 -0.05998582945928433 -0.9537630393650899
206119552 -0.08372912898323305 -0.9513945924583691
207110271 -0.06874990268406572 -0.9534153611827227
208100990 -0.09513693217423458 -0.9500808843460712
209091709 -0.08337177459042247 -0.9512384746623761
210082428 -0.08666630568428683 -0.9520118847082985
211073148 -0.1091824857475301 -0.9481879852315364
212063866 -0.09670004372337639 -0.9505920064634319
213054585 -0.12063844975516465 -0.9466191924276149
214045305 -0.10974368602245299 -0.9471363832056607
215036024 -0.11284290004683545 -0.9466982939255773
216026743 -0.13796900212862076 -0.9440319416398031
217017462 -0.12160450419937521 -0.9463746704498717
218008180 -0.14674867462471955 -0.9420466072855049
218998900 -0.13613102460606397 -0.9441555348022195
219989618 -0.13955689312643887 -0.944787496628447
220980338 -0.16388999956880698 -0.9389165538144634
221971058 -0.14820496006757203 -0.9404837663778293
222961774 -0.17159974075304932 -0.9362698887625077
223952494 -0.16232755783150798 -0.9383667663328655
224943214 -0.16328853921403835 -0.9395263613193825
225933932 -0.1877149336755501 -0.9343567650029904
226924652 -0.17300248108553432 -0.9379707819423275
227915372 -0.19682281869192497 -0.9313786803209173
228906090 -0.18610853712476072 -0.9330390395801901
229896810 -0.1891401805077534 -0.9336864415191789
230887528 -0.21307408274956197 -0.9283244962161925
231878248 -0.19690326507704584 -0.9321894636949332
232868968 -0.22058366919682984 -0.9255405376607663
233859686 -0.21153170183268372 -0.928316073613424
234850406 -0.21391966601084045 -0.9276780930416548
235841122 -0.23780764693950115 -0.9214459247797794
236831842 -0.22108602915892508 -0.9258850031829259
237822562 -0.24468266975955383 -0.9193768790348209
238813278 -0.23485070889255671 -0.9214496354896847
239803998 -0.2354305888314692 -0.9206899236466032
240794718 -0.26033892854632384 -0.9148066726517461
241785438 -0.24418734201622683 -0.9193012016695606
242776158 -0.26883217420127165 -0.9103315706041973
243766878 -0.2584319603059902 -0.9156528854790132
244757598 -0.25942634279300464 -0.9158813600703652
245748310 -0.28370381694457875 -0.9062881549929774
246739030 -0.2674698629505705 -0.9123784208364
247729750 -0.29139388594935534 -0.9052640403268777
248720470 -0.2799374182112933 -0.9075680461251546
249711190 -0.2827134460468158 -0.9065753372836759
250701906 -0.30622301777155664 -0.8994589516122029
251692626 -0.28977484676589305 -0.9061509440754064
252683346 -0.3107723595736155 -0.8964952646975459
253674066 -0.3017691360646144 -0.9003305736183015
254664786 -0.3033100605493387 -0.8997906217622299
255655506 -0.32726976030123756 -0.8918394001082027
256646222 -0.3099956945572967 -0.8975472952608406
257636942 -0.3321540317265224 -0.8890843366069331
258627662 -0.32357029967405343 -0.8921178231663556
259618382 -0.32484332059900733 -0.89085757732181
260609102 -0.34837185805726173 -0.8824548093217237
261599818 -0.33170409367926584 -0.8886991498148255
262590538 -0.35359943383555154 -0.878947727611526
263581258 -0.34338571281616725 -0.8831982471759524
264571978 -0.3455211457665909 -0.8826916086429697
265562698 -0.36778831195964556 -0.873336667767597
266553410 -0.3523954278793915 -0.8814108149102388
267544134 -0.375158932504312 -0.8710737516981344
268534854 -0.3645200327604005 -0.8740596518663138
269525574 -0.36525108057579353 -0.8745941143746233
270516294 -0.3863253033678907 -0.8648362190065476
271507006 -0.372147009813893 -0.871027723113489
272497726 -0.3923034898566081 -0.859930594221778
273488446 -0.38332628053418955 -0.86591844323069
274479166 -0.38382759069309846 -0.8657714550115366
275469886 -0.4043837604792926 -0.8536474764016065
276460606 -0.38977755871781444 -0.8620426286583068
277451318 -0.4109709145595297 -0.851466739461513
278442038 -0.4013765471162335 -0.855559183725304
279432758 -0.40436967531265183 -0.8551612721231422
280423478 -0.4246598862080554 -0.8444616309467445
281414198 -0.40961219806921706 -0.8522943304532068
282404918 -0.42843903369372327 -0.8429188853334192
283395638 -0.42074912533499614 -0.8460454994543444
284386358 -0.41971145209646055 -0.8460263745311524
285377078 -0.4424403419168706 -0.8352797570056245
286367798 -0.4268323088244781 -0.8415972205266449
287358518 -0.44760103953229086 -0.8316093003852986
288349238 -0.4377919941747329 -0.8365300738330921
289339958 -0.44064217716140763 -0.8362527430256482
290330662 -0.45927418590375774 -0.8247002146964599
291321382 -0.4471725454573632 -0.8335740082381838
292312102 -0.4657327953612566 -0.8207416366404611
293302822 -0.4561194236652454 -0.8256708528434703
294293542 -0.4572368713652226 -0.8259874046810657
295284262 -0.47909669721113696 -0.8131174261910448
296274982 -0.46289302182334535 -0.8202186074076608
297265702 -0.48095601809959027 -0.8099776332486824
298256422 -0.4735021034493807 -0.8164627288761852
299247142 -0.4735842438613671 -0.815654874280208
300237857 -0.4869652361615823 -0.8096261906475949
301228576 -0.510275242434162 -0.8008718474471148
302219295 -0.49678806719245 -0.8052900881984024
303210014 -0.4915461093507846 -0.806840582007732
304200733 -0.512264331714611 -0.7941735827818471
305191452 -0.4989217407451064 -0.8033247594597247
306182171 -0.5222490391273007 -0.7886961217405895
307172890 -0.5131273132651615 -0.7967537665758108
308163609 -0.509751099648182 -0.7938177154546443
309154328 -0.526774082359738 -0.7870921376184689
310145047 -0.5167565381787634 -0.7919492075204517
311135767 -0.5419480195363646 -0.7774635962372103
312126485 -0.5246620726699283 -0.7882214836852912
313117204 -0.5307292838338088 -0.7818477312902596
314107924 -0.5427893412396049 -0.780045774953944
315098643 -0.531013623208342 -0.7815747676863279
316089362 -0.5541229509970873 -0.765512899895296
317080081 -0.5423248207615378 -0.774322730595582
318070799 -0.5431239883305354 -0.7768709435659314
319061519 -0.5602857089724969 -0.7674252436320911
320052237 -0.5477450072254605 -0.7732964295154109
321042957 -0.5657357447742538 -0.7606846590586598
322033677 -0.558283609249275 -0.7653326980457189
323024393 -0.5575416396436278 -0.7657289575346908
324015113 -0.5736176947693028 -0.7550539098800707
325005833 -0.5668279011018965 -0.7618926775133209
325996551 -0.5780597127515325 -0.7458887437252554
326987271 -0.5700133470378491 -0.7569313765425135
327977991 -0.5738181592499659 -0.754070960474505
328968709 -0.5890755778808153 -0.7384911735988489
329959429 -0.5746336348840267 -0.7499817289411397
330950147 -0.5930077496899469 -0.7358488571282578
331940867 -0.5855579874217891 -0.747128902098982
332931587 -0.5846070640887466 -0.7468420971851344
333922305 -0.5982294864058608 -0.7368435136289774
334913025 -0.5902649527370106 -0.7439211567252102
335903741 -0.6131588670796361 -0.7319260904592685
336894461 -0.5982814229297441 -0.736156348749853
337885181 -0.6005753905262728 -0.737171789476665
338875897 -0.6167415123884071 -0.7265134425618552
339866617 -0.602998630209656 -0.7348230728273399
340857337 -0.621329088854865 -0.7200922121705291
341848057 -0.6099377606885277 -0.7304318037685281
342838777 -0.614720878413618 -0.7282921182919304
343829497 -0.6256124752029266 -0.7160847345970447
344820217 -0.6181628434501018 -0.7184771971986865
345810929 -0.6329348710590567 -0.7134789947096356
346801649 -0.6255761149879815 -0.7149727782485731
347792369 -0.6276150295505859 -0.7184564461783001
348783089 -0.637657805095852 -0.7006116407056837
349773809 -0.6338760880614914 -0.7129916322309124
350764525 -0.6445399727372679 -0.6955351690788659
351755245 -0.6394660036731412 -0.7101405174130414
352745965 -0.63724057922757 -0.7042620468056638
353736685 -0.6541588118384644 -0.6930340126065503
354727405 -0.6435768080345453 -0.7045946281515651
355718125 -0.6578019903808322 -0.6875179207722979
356708841 -0.6505718158109737 -0.6948703552753454
357699561 -0.6553389803554425 -0.6949702852510607
358690281 -0.6675291173368122 -0.6848436885788005
359681001 -0.6549330345830798 -0.6943267965135963
360671721 -0.6696211870556633 -0.6774065793505886
361662437 -0.6616246059670512 -0.6842077452250832
362653157 -0.6661193138964643 -0.6888556543220086
363643877 -0.6759509789694536 -0.673083626054522
364634597 -0.6627252630573013 -0.6879079091436526
365625317 -0.6783769364103265 -0.6711920775632954
366616029 -0.6656104341620869 -0.6736045973221936
367606753 -0.6720394207810478 -0.6748183396484864
368597473 -0.6928268166059702 -0.6622318790493128
369588193 -0.6723823933882603 -0.6723603625549321
370578913 -0.692818437681576 -0.6563774293980781
371569625 -0.6794893562453804 -0.6682361260748357
372560345 -0.6864819322494121 -0.6652417542268999
373551065 -0.6932364979210001 -0.6543679639239565
374541785 -0.6838548963529308 -0.6652607950229168
375532505 -0.6990392533423855 -0.6521856224013513
376523225 -0.6887506689411393 -0.6589026340974842
377513937 -0.6897828423182076 -0.6582984765455848
378504657 -0.7001082835435744 -0.6425870770491025
379495377 -0.6930340815637697 -0.654635892398062
380486097 -0.7065126046009759 -0.6378197892836047
381476817 -0.7011002506002718 -0.6448598588888472
382467537 -0.6980286270940051 -0.6459517300918608
383458257 -0.7102519950343525 -0.6312311548785808
384448977 -0.7004945443473051 -0.6474319146187003
385439697 -0.7101923846767024 -0.6266015153285834
386430417 -0.70593727116784 -0.6354260563584383
387421137 -0.7067615865294641 -0.635353847652317
388411857 -0.7214222667540497 -0.6217496789987919
389402577 -0.7083922075815053 -0.627867748357732
390393281 -0.7234802834461277 -0.6150909873048195
391384001 -0.7139291775342846 -0.6281909416231751
392374721 -0.7140554852468942 -0.6247723232202796
393365441 -0.7252715481564798 -0.608497570544363
394356161 -0.716328692156934 -0.619050534137249
395346881 -0.7284454613702082 -0.6042621335190637
396337601 -0.7197717883750633 -0.6148124076538685
397328321 -0.7216914278276074 -0.6139645755968486
398319041 -0.7341471318571771 -0.5956675802910657
399309761 -0.7202710321044539 -0.6109842620479964
