# Hz S RI R 50
50000 0.9993469177597093 0.00024422470576534214
1040719 0.9990218520955105 -0.009588603611336958
2031438 0.9993191321279081 -0.018271604653680707
3022157 0.9987166347729646 -0.02813833340702519
4012876 0.998524315861381 -0.03664967297995628
5003595 0.9979512233600927 -0.04605198845028579
5994314 0.9970845646558912 -0.05544791721752946
6985033 0.9968351288940659 -0.06382426663027752
7975752 0.9958108598414234 -0.07458268429467231
8966471 0.9955518247253587 -0.0817150270246032
9957190 0.9946454367068644 -0.0910909491175175
10947910 0.9936659287805837 -0.10109321548776769
11938628 0.9927268145983235 -0.10898051223584371
12929347 0.9914558647146542 -0.12003128923744977
13920067 0.9907436422100475 -0.1276383985553434
14910786 0.9893793591447916 -0.13641281296552174
15901505 0.9875663389617755 -0.14727843802260407
16892224 0.9867803334262929 -0.1538714929514011
17882942 0.984472506718552 -0.16586644367048656
18873662 0.9835049253180174 -0.17189540221222133
19864380 0.9817666083069364 -0.18095964488409966
20855100 0.9792641338768477 -0.19249176878397295
21845820 0.9781398125111771 -0.19863945034162056
22836536 0.9754839497704494 -0.21075858543282414
23827256 0.9746741460261503 -0.21692689046433836
24817976 0.9722744914559558 -0.22498954627326817
25808694 0.9687906427041175 -0.2371712504072599
26799414 0.9675515719480605 -0.2419970267183887
27790134 0.964145763441932 -0.2548005372569068
28780852 0.9627500224334117 -0.2601932573131215
29771572 0.9604731765148886 -0.26835224272641517
30762290 0.9570758899128052 -0.28131483301996474
31753010 0.9554534688083755 -0.2851191473912502
32743730 0.9510607505044729 -0.2985498027071159
33734448 0.9499101279982378 -0.3028427101494659
34725168 0.946882520482627 -0.31127251410052886
35715884 0.9427008801920487 -0.3238086125176826
36706604 0.9414879505882766 -0.3276649312053037
37697324 0.935844080365321 -0.3414594611956552
38688040 0.9349397151157842 -0.34463861925853234
39678760 0.9315285402189173 -0.35239851450528664
40669480 0.9264941932785821 -0.3653856100984318
41660200 0.9251411994291562 -0.3679214520200023
42650920 0.9189139803921501 -0.3826414857473072
43641640 0.9180461521444868 -0.38548051444202447
44632360 0.914229899526965 -0.3936415225533682
45623072 0.9078419463158255 -0.4059507406697557
46613792 0.9074582637295524 -0.4087053773589912
47604512 0.9001784776596713 -0.4232215715266689
48595232 0.898384275073997 -0.42533648378930333
49585952 0.8956515164612774 -0.43240577373502187
50576668 0.8879802646533583 -0.44563995634878734
51567388 0.8877724067869992 -0.4474636568958115
52558108 0.8790639722866218 -0.4619884411038037
53548828 0.8786541806793944 -0.46375717303401437
54539548 0.8745598587036951 -0.4712426644216994
55530268 0.8671234548578369 -0.48504076622123293
56520984 0.8667593229528088 -0.4845820252159615
57511704 0.8566728008189252 -0.49842100969638475
58502424 0.8571710578384641 -0.5009125220082962
59493144 0.8518157929402267 -0.5077743553033788
60483864 0.843921953798926 -0.5219287909022821
61474580 0.8440321396148873 -0.5211706973592988
62465300 0.8334868489575845 -0.536861610845603
63456020 0.8345419744859482 -0.5372731407727852
64446740 0.8297938272383689 -0.5429728059222958
65437460 0.8204226297815271 -0.5569154779642794
66428172 0.8198358293501496 -0.5574551688252252
67418896 0.8081979343354772 -0.5716759592116605
68409616 0.8087450981062453 -0.5700624443439765
69400336 0.8028458049120424 -0.5782305854083964
70391056 0.7937585048450665 -0.5902438001687983
71381768 0.79512904765523 -0.5900069868500801
72372488 0.7828291002935136 -0.6046502253811863
73363208 0.7830965872854274 -0.6043138462086215
74353928 0.7790413950121046 -0.6101691139073875
75344648 0.7669798043478436 -0.6226436145512733
76335368 0.7690052383344147 -0.6203730785398289
77326080 0.7557080816344075 -0.6369178097224426
78316800 0.7574210900243276 -0.6354736383390754
79307520 0.7515276612807082 -0.6409998581912479
80298240 0.7407963885149494 -0.6532283174295911
81288960 0.7427926106872477 -0.6519515975154596
82279680 0.7284184516882027 -0.6657841975391499
83270400 0.7303812221937791 -0.6641768210170851
84261120 0.7258529978683416 -0.6702137711416143
85251840 0.712379522065966 -0.6821838617866819
86242560 0.7129765634838676 -0.6785955788136971
87233280 0.6993443864853672 -0.6950745025029024
88224000 0.7007291375543548 -0.6924640231569502
89214720 0.6932524178429559 -0.6954820842597017
90205424 0.6827548295643283 -0.7106291660999773
91196144 0.6832940506479237 -0.7065833218295013
92186864 0.6679089447320035 -0.7220178433500932
93177584 0.6697264234833676 -0.7198190325766144
94168304 0.6647395503690153 -0.7254214907447651
95159024 0.6506732082063812 -0.7374218547860878
96149744 0.6527930353015416 -0.7329396054472619
97140464 0.6367119271475469 -0.746875697344923
98131184 0.6397865421836352 -0.745163198515766
99121904 0.6351488461544803 -0.7485456505338226
100112619 0.6278746856559616 -0.7550124875840643
101103338 0.62321191264511 -0.7590396666758873
102094057 0.6068884867604257 -0.7709790493239603
103084776 0.6116215485137283 -0.7665798653324272
104075495 0.59412505824032 -0.7802063784898413
105066214 0.5967036652472726 -0.7783741792293086
106056933 0.5921267369571627 -0.7813872795634041
107047652 0.575778173605448 -0.7934827703513877
108038371 0.5806600196750159 -0.7899200329750382
109029090 0.5621215352972667 -0.8024672891906468
110019809 0.564991717861077 -0.8005737066977316
111010529 0.5602314259972141 -0.8036962209438825
112001247 0.5443923920142826 -0.8148204442091371
112991966 0.5484274009387821 -0.8116519723597354
113982686 0.5297465874308415 -0.8220624467513621
114973405 0.5344062411293872 -0.8202133420892046
115964124 0.528869225844142 -0.8230860169083487
116954843 0.510746858555127 -0.8341567555467978
117945561 0.5179307319224612 -0.8301231708091525
118936281 0.49810644698581585 -0.8415449036860928
119926999 0.5029065941396365 -0.8385048099210489
120917719 0.49771109000146535 -0.8412697967629769
121908439 0.4797477139886625 -0.8506210768512077
122899155 0.48565000827795224 -0.8482578655933796
123889875 0.4653261642611707 -0.8577025806200368
124880595 0.4713533384209591 -0.8554755751059345
125871313 0.46548154353517707 -0.8575899200449535
126862033 0.44722856266740807 -0.8678264694633595
127852753 0.45429881633475677 -0.8636497491520521
128843471 0.43407324202966446 -0.8724695503496133
129834191 0.4383216249601142 -0.8706518858846279
130824909 0.4340182021325092 -0.8728590099652767
131815629 0.41461800775655433 -0.8819800383918519
132806349 0.42240562436776735 -0.8771599995526406
133797067 0.4011763808695742 -0.887869208104389
134787787 0.4063937318540178 -0.8853082507345227
135778503 0.4017189139676922 -0.8868982282199126
136769223 0.3823349954033053 -0.8953552336674651
137759943 0.39032586485798443 -0.8914565326493462
138750659 0.3701472294314134 -0.8995334868879243
139741379 0.37448326899235057 -0.8975288792770564
140732099 0.3702868596955473 -0.899621048475446
141722819 0.3511103761172163 -0.9060442100514541
142713539 0.3593659613829679 -0.9041459671108582
143704259 0.33765160227193486 -0.9109624982619703
144694979 0.34349034309603427 -0.9084726203963196
145685691 0.33855991682675013 -0.9101884382322848
146676411 0.3194998334283859 -0.9167491115857697
147667131 0.32784791433895266 -0.9136873523852378
148657851 0.30565764586256866 -0.9203497081789626
149648571 0.3120562506652782 -0.9184258600820724
150639287 0.3062606857615958 -0.9211164843116417
151630007 0.29039915457614535 -0.9250711824106704
152620727 0.2971281305112132 -0.9228302952864569
153611447 0.27167128057086803 -0.9301420710623933
154602167 0.2841861718760851 -0.9266809434481053
155592887 0.2745750428323416 -0.9290968898609175
156583603 0.2588935316214223 -0.9337169697596365
157574323 0.2656164371556814 -0.9310031773517305
158565043 0.24015219492196482 -0.9379320235501933
159555763 0.251659163477073 -0.9341989465230115
160546483 0.2437069132269308 -0.9362924233886416
161537199 0.2281696530353551 -0.9410214630083946
162527919 0.23452629064981284 -0.9378361404378112
163518639 0.20960291193594868 -0.9432435105684933
164509359 0.221652077577888 -0.941320863890455
165500079 0.2147854053265066 -0.9431696832989898
166490791 0.19667030963000576 -0.944718590539847
167481515 0.20470975979802297 -0.9440610240769183
168472235 0.17919390285178668 -0.9487781803105544
169462955 0.1903568528454316 -0.946392913175231
170453675 0.18189635472694635 -0.9474997787575118
171444387 0.16601946795846811 -0.9503461019829897
172435107 0.17360469559386488 -0.9486803867352065
173425827 0.14914810342262103 -0.9523262176612668
174416547 0.16007879062989888 -0.9493775446606213
175407267 0.15251760007390436 -0.952498206434272
176397987 0.13618295282646686 -0.953698489279809
177388699 0.14483635655216962 -0.9524113131832752
178379419 0.11932128383726495 -0.9557113428049203
179370139 0.13105705901303596 -0.9534479092518005
180360859 0.12300997920552284 -0.9546336553769457
181351579 0.1068052856890254 -0.9561936469404231
182342299 0.11550070315143914 -0.9555219301469621
183333019 0.08919436808725732 -0.9583514904652127
184323739 0.10083025633512907 -0.9567462628763629
185314459 0.09412559190013386 -0.9574217293739609
186305179 0.07732220133310248 -0.9578960924339716
187295899 0.08662559151023466 -0.9576866188459792
188286619 0.06073840899531794 -0.9580179520226889
189277339 0.07277197915601516 -0.9585004432475454
190268043 0.06667125750111502 -0.9586937530592412
191258763 0.04900341520896467 -0.9595861508603738
192249483 0.05810112870383016 -0.9591083406992256
193240203 0.031160339918021165 -0.9593082876744559
194230923 0.043466990188991764 -0.9587321135383514
195221643 0.03608530905338365 -0.958843275537072
196212363 0.019634818489024965 -0.9575006978066967
197203083 0.031045494242331394 -0.9586551173115334
198193803 0.0034226175707186197 -0.9584459725107168
199184523 0.016082537510007402 -0.9596065762758496
200175238 -0.006156202034343937 -0.9572032417432248
201165957 0.004092435736346462 -0.959471368703259
202156676 -0.001084440671727664 -0.9579226206919322
203147395 -0.0223093115029272 -0.9571767113147431
204138114 -0.009556866959589199 -0.9579525113019578
205128833 -0.03343975882658786 -0.95651536565466
206119552 -0.02351780219382491 -0.9574438981810973
207110271 -0.027263331237797332 -0.9569745020104987
208100990 -0.05025723682344526 -0.9556219487585322
209091709 -0.03533933425198262 -0.956580481697956
210082428 -0.060295426112320034 -0.9555105672061991
211073148 -0.049817048734482595 -0.9554542477475869
212063866 -0.054892903922866006 -0.9555660706310499
213054585 -0.07562327628368971 -0.953223672510248
214045305 -0.06214958115165826 -0.9538319515635953
215036024 -0.08671543814812425 -0.9501683282281314
216026743 -0.07724635531558996 -0.9532139624588468
217017462 -0.07966771183886591 -0.9529170416419389
218008180 -0.10176169314479129 -0.9501709746427518
218998900 -0.08877689603682636 -0.9519506661948312
219989618 -0.11357558434781956 -0.950092840593502
220980338 -0.10296708515132859 -0.950151847384033
221971058 -0.106107221533795 -0.9484180094776002
222961774 -0.12733219301104218 -0.9457266244530865
223952494 -0.11413705514043407 -0.9473306803987877
224943214 -0.13787732324621302 -0.9454988689842642
225933932 -0.12761203177471064 -0.9464549251464607
226924652 -0.13121323379753227 -0.9465783448066025
227915372 -0.15275617616441958 -0.9416327075082439
228906090 -0.13915353333914723 -0.9442907031420738
229896810 -0.16292619241816336 -0.9398842673043692
230887528 -0.15278566590023157 -0.9418765879050102
231878248 -0.15562699627257634 -0.941805418687838
232868968 -0.17723662171011262 -0.9363775154138886
233859686 -0.163917129010401 -0.9398156111325003
234850406 -0.1880953554345851 -0.9350438240951052
235841122 -0.17790979207002258 -0.9371630278976136
236831842 -0.17983385588046466 -0.9361666678110289
237822562 -0.20138186589251741 -0.9320314627632161
238813278 -0.1883682001054788 -0.9343067459072658
239803998 -0.21002838325638132 -0.9289862316887388
240794718 -0.20138709165855467 -0.9316319745020768
241785438 -0.2039881943800013 -0.9304556483109278
242776158 -0.22508802353795454 -0.9243343135942901
243766878 -0.21128087538073997 -0.9289520617405368
244757598 -0.23456344075297844 -0.9236459985425203
245748310 -0.22449165076899408 -0.9249595052198205
246739030 -0.22685682442041513 -0.9253735665163618
247729750 -0.2487140152616213 -0.9197117530516666
248720470 -0.2343336062773022 -0.9227752762645923
249711190 -0.2584817273440705 -0.9152689223927836
250701906 -0.2487025021014526 -0.9191143307074655
251692626 -0.24935567671507372 -0.9197002657694318
252683346 -0.26934903923034625 -0.9128722674717361
253674066 -0.2565410893553737 -0.9164365049100293
254664786 -0.278012709660901 -0.9093303495784425
255655506 -0.2691091659587534 -0.9138708844533762
256646222 -0.27035378451976294 -0.9117449853418946
257636942 -0.29109644481472113 -0.9053878210949772
258627662 -0.27857350530380853 -0.9097247126539267
259618382 -0.30092049835873347 -0.9007861739727835
260609102 -0.2924296074166201 -0.903663850463403
261599818 -0.2938177269790959 -0.9040406088415578
262590538 -0.31273503523070184 -0.8963174847213282
263581258 -0.30033089026959175 -0.9016575448375538
264571978 -0.32086603665405633 -0.8934361076463203
265562698 -0.31206074774088133 -0.8970982160396863
266553410 -0.3144685128350368 -0.8979867584052796
267544134 -0.3320843435574401 -0.8887489571279213
268534854 -0.3209476528210883 -0.8936818617002333
269525574 -0.3415206669194015 -0.8857511225530404
270516294 -0.33115410455486166 -0.8903447590767509
271507006 -0.334199214759423 -0.8885740699388018
272497726 -0.3527070970906122 -0.8801679886956643
273488446 -0.3392800502693478 -0.8863344507127336
274479166 -0.36013027828271177 -0.8780156104349772
275469886 -0.3499975919019006 -0.8799915224293995
276460606 -0.3525622074866582 -0.8804004751738623
277451318 -0.3713887590722872 -0.871217096346348
278442038 -0.3587874843441455 -0.877994365385058
279432758 -0.3818749033843503 -0.8674178082190768
280423478 -0.3704352696794391 -0.8719248291598645
281414198 -0.3726380332322127 -0.8698809399500335
282404918 -0.39112254799291524 -0.8633414219619181
283395638 -0.3784257432369336 -0.8676448100138716
284386358 -0.3975739955557703 -0.8579017947484293
285377078 -0.3884656828040899 -0.8650892030436064
286367798 -0.39113673446052755 -0.8615737715655267
287358518 -0.4090955724700973 -0.8531392895806843
288349238 -0.3972002711261263 -0.8594263674845481
289339958 -0.41836870506284873 -0.8488643055406917
290330662 -0.40703080343280057 -0.8548500494370005
291321382 -0.4106740882656915 -0.8543750596150156
292312102 -0.42775077943220113 -0.843561179063382
293302822 -0.41393792348201075 -0.8506660482370377
294293542 -0.43556746491375825 -0.8393619612631281
295284262 -0.42652132157673817 -0.8440744738589163
296274982 -0.42744709397532815 -0.8420839750116476
297265702 -0.4443172476141005 -0.832859929122961
298256422 -0.43330455975423454 -0.8413965349797575
299247142 -0.4527782154337672 -0.8292441757078571
300237857 -0.45289202017144653 -0.831263615643248
301228576 -0.46806677764787197 -0.8285141717478628
302219295 -0.45660355736195113 -0.8284816401336706
303210014 -0.47201237717571837 -0.8200337307913798
304200733 -0.4608366296404118 -0.8252942318223744
305191452 -0.46463111739183666 -0.8243359859320826
306182171 -0.4795825766958948 -0.8163009195507577
307172890 -0.47433329366034777 -0.8225265528211522
308163609 -0.48911553702911315 -0.8074422530034933
309154328 -0.47691541868372606 -0.8188699585006712
310145047 -0.48513592970341995 -0.8121366843078812
311135767 -0.500512144645673 -0.8054436123789962
312126485 -0.48531325231503614 -0.8131781919857028
313117204 -0.5099012906884951 -0.7969526457134684
314107924 -0.49239672725556344 -0.8120189930187471
315098643 -0.4996037588023376 -0.8022621015873497
316089362 -0.512544865658881 -0.7939074224330273
317080081 -0.5045138962823164 -0.7999080051971192
318070799 -0.5230520883423989 -0.7903829505723334
319061519 -0.5127420177374576 -0.8020766411251223
320052237 -0.5179230229470417 -0.794613381926439
321042957 -0.5269083323882883 -0.7897314957216917
322033677 -0.520643910674305 -0.7903424355435623
323024393 -0.5380808224627296 -0.780050496345376
324015113 -0.5256677886455137 -0.7894316506024756
325005833 -0.5376431668400048 -0.7843917558373972
325996551 -0.5413745455561793 -0.7734218996754502
326987271 -0.5324033429119893 -0.7837436825685734
327977991 -0.5564700633163734 -0.7666160339087686
328968709 -0.5394738424046766 -0.771955149485644
329959429 -0.5445550307418058 -0.7678719323190395
330950147 -0.5561399829228567 -0.7686663888665444
331940867 -0.5460190932297261 -0.7732431191709187
332931587 -0.5697676460395675 -0.7600503945984421
333922305 -0.5539719050636815 -0.7738311261950399
334913025 -0.5609525613860398 -0.7665922493948804
335903741 -0.5744167396040477 -0.7623183554286066
336894461 -0.5633863612734313 -0.7640238484775813
337885181 -0.5824596813338513 -0.752197050808047
338875897 -0.570974466866459 -0.7611580521677891
339866617 -0.5774613898717227 -0.7558598027087096
340857337 -0.5844347731333316 -0.7519961088280381
341848057 -0.5751751522863756 -0.7569798123145975
342838777 -0.5976424283993923 -0.7429868910283838
343829497 -0.5818717510957485 -0.7522829739810739
344820217 -0.5888199401023043 -0.7415539381464444
345810929 -0.596751845215184 -0.7436471218453348
346801649 -0.5921114581576079 -0.7433673604205728
347792369 -0.6103324049915559 -0.7327250515383129
348783089 -0.5919485402016236 -0.7382089748502824
349773809 -0.6071968887721286 -0.7379585341537068
350764525 -0.6094957017706168 -0.7268018998984188
351755245 -0.6041398469673614 -0.7384170402717419
352745965 -0.6223615766892511 -0.7211046302003746
353736685 -0.6098018345951135 -0.7332038644555419
354727405 -0.6157319484921033 -0.7304859982985773
355718125 -0.6245871701346296 -0.7157427351827113
356708841 -0.6172545435124782 -0.7232165399523554
357699561 -0.6345887927023894 -0.7086384786129621
358690281 -0.6236923095875136 -0.7247079390063801
359681001 -0.627675520187645 -0.7204907620536377
360671721 -0.6370006846503583 -0.7114005447310884
361662437 -0.630645760674354 -0.7159061709805578
362653157 -0.6474799747315694 -0.7055283732625208
363643877 -0.6322880727900202 -0.7162931070427269
364634597 -0.6415129607975515 -0.7083533620792987
365625317 -0.6444369447200696 -0.7025630002350821
366616029 -0.6388225641826122 -0.7115331313916635
367606753 -0.6566106749039156 -0.6897275233318236
368597473 -0.6449387236932057 -0.6975194947723776
369588193 -0.6481950906646781 -0.7021124243438088
370578913 -0.6607263274138343 -0.6890692076254197
371569625 -0.6484887746833029 -0.6996134276163675
372560345 -0.6709227454971912 -0.6803575373986228
373551065 -0.6539667363521724 -0.6953297578161828
374541785 -0.6602159472763734 -0.689348471928846
375532505 -0.6661356186196208 -0.6865556543187755
376523225 -0.6645540424431835 -0.6912465498783417
377513937 -0.6755355155264988 -0.6738533359791532
378504657 -0.6619168814899353 -0.684018532743515
379495377 -0.6677315597466236 -0.6794529845196701
380486097 -0.6760005845548993 -0.6714040827650923
381476817 -0.6713513317732778 -0.6765377826151321
382467537 -0.6816830907189089 -0.6616235600465111
383458257 -0.6724114421546563 -0.6724969566769846
384448977 -0.678346601391969 -0.6730074649485138
385439697 -0.6800300797409466 -0.661195891413507
386430417 -0.6767998919738679 -0.6655271336771319
387421137 -0.6921405427213198 -0.6502694946196691
388411857 -0.6846683387050206 -0.6617133043172752
389402577 -0.6872367870738211 -0.6559040042336123
390393281 -0.6934545110387449 -0.6494483276375747
391384001 -0.6806295419536266 -0.6574822458723331
392374721 -0.700853329763067 -0.6412085088878393
393365441 -0.689688768224443 -0.6494036092674346
394356161 -0.6936653123329564 -0.6447705958769225
395346881 -0.7007877453175834 -0.6367293793659742
396337601 -0.6917029282955302 -0.6467334645339656
397328321 -0.7081988580677935 -0.6293129492767654
398319041 -0.7001412246469717 -0.6372312656425956
