# Hz S RI R 50
50000 0.9990842360354253 0.00035723861357127117
1040719 0.9989985845194274 -0.006017061771774813
2031438 0.9994348682437323 -0.011862493619095303
3022157 0.9989573267091384 -0.017517113233532545
4012876 0.9988174495572597 -0.023819572417416102
5003595 0.9986496326377845 -0.029388187626376846
5994314 0.9983104242695299 -0.035038839239561456
6985033 0.9976825145868375 -0.04150256397132982
7975752 0.9977992408471739 -0.046875749840912834
8966471 0.997750181456186 -0.053093904828410345
9957190 0.9972793226592808 -0.05867378028396469
10947910 0.9968970893740023 -0.06432382917880347
11938628 0.9963339295069128 -0.07057804163807091
12929347 0.9962904785015855 -0.07584187700677453
13920067 0.9954746900492024 -0.08278211277118021
14910786 0.9952506786667207 -0.08790638031898736
15901505 0.9946433789869157 -0.09382962046330369
16892224 0.9937680182821297 -0.09986081488549754
17882942 0.993459303601853 -0.10506119496332172
18873662 0.9922465679845222 -0.11159401565272617
19864380 0.9921225494747348 -0.11689278139702006
20855100 0.9909472027627128 -0.12286879157335617
21845820 0.9904112503778858 -0.12909873866536875
22836536 0.9896734068933132 -0.13397838953921506
23827256 0.9887895296220336 -0.1412955944066705
24817976 0.9879021398381941 -0.14519063722832942
25808694 0.9864105241799399 -0.15173990076388885
26799414 0.9856635349936002 -0.15783525011256236
27790134 0.9847717248515238 -0.1627434190838763
28780852 0.9835455524671692 -0.17031415919684612
29771572 0.9829025455890917 -0.1739271787728926
30762290 0.9818074880351918 -0.1805874015128639
31753010 0.9802753437275002 -0.18658633612253603
32743730 0.9796416396402987 -0.19109691311824464
33734448 0.9781677913441542 -0.19886339845831347
34725168 0.9772800996223401 -0.2028700194062595
35715884 0.9757705081280426 -0.20864780205973876
36706604 0.9739779576509875 -0.21499245431968453
37697324 0.9733980325223959 -0.21965298205830447
38688040 0.9716642204911503 -0.2268916113643592
39678760 0.9702924051493631 -0.23084531140497538
40669480 0.9687959927813227 -0.2371121000718205
41660200 0.9671873497214311 -0.2428219128757871
42650920 0.965998608710887 -0.2472665536999689
43641640 0.9640406634355342 -0.255928704803622
44632360 0.9630875539559449 -0.2585278692205332
45623072 0.9605024702019439 -0.263725545343732
46613792 0.9594589558421152 -0.2706392560465747
47604512 0.9584511421275341 -0.27495271760052936
48595232 0.9553522355158333 -0.2828448509797296
49585952 0.9551704721124552 -0.2858488082191116
50576668 0.9525329120682773 -0.29240564087699034
51567388 0.9510505394067339 -0.29815086679277353
52558108 0.9490622700079824 -0.3021984401540881
53548828 0.9468429102147435 -0.31059001152672516
54539548 0.9457280495671886 -0.31310958431331976
55530268 0.9442860381279289 -0.3204937530529127
56520984 0.9410910060473886 -0.32454924147611663
57511704 0.9401279871106719 -0.32858482683947526
58502424 0.9376310785616588 -0.3383490123730911
59493144 0.9351620961695895 -0.34007645366690237
60483864 0.9333835669967234 -0.34688875945430236
61474580 0.9317453065262681 -0.3509780639434255
62465300 0.9295844641609777 -0.35613171038309116
63456020 0.9270194423502836 -0.3651910464141464
64446740 0.9252054667230719 -0.36646145046744705
65437460 0.9231511671060711 -0.3723459679774723
66428172 0.9199095073837271 -0.3787947633726222
67418896 0.9178694571474735 -0.3820782760568399
68409616 0.9138006005759546 -0.38984266349979557
69400336 0.9135027696708655 -0.392715913118016
70391056 0.9101514023912157 -0.3979778530159162
71381768 0.9088262490710264 -0.40391824369998924
72372488 0.9073948464771254 -0.40724519022884376
73363208 0.9022141154784995 -0.41674182172915186
74353928 0.9021958788052029 -0.41766745241670544
75344648 0.8981741820905005 -0.42405771856700164
76335368 0.8969918135888306 -0.42881655689423204
77326080 0.8947065803553154 -0.43243310212543834
78316800 0.8905313692493366 -0.44136305619266564
79307520 0.8889164329569724 -0.4426604741109304
80298240 0.8862818396638832 -0.4483908195236391
81288960 0.8840355650777684 -0.45424349422167704
82279680 0.8821198944036024 -0.45667908450064143
83270400 0.8770456750179925 -0.4656372943270955
84261120 0.8760438769694592 -0.46624405035633065
85251840 0.8745201895746025 -0.4721739655557803
86242560 0.869540510187581 -0.47826968379875456
87233280 0.8693217805752947 -0.482989111796713
88224000 0.8623826744719093 -0.4897264036218802
89214720 0.8592541280877152 -0.4885445053420884
90205424 0.858328802237332 -0.4971816681004579
91196144 0.8528638236127395 -0.5010446915231332
92186864 0.8526009577231723 -0.5045650154580507
93177584 0.8468502175663458 -0.5150771063634754
94168304 0.8470577973215646 -0.5150510470314581
95159024 0.843719757748301 -0.521742923652804
96149744 0.8384724142262653 -0.5246184051742755
97140464 0.8376163722370427 -0.5264758808303733
98131184 0.8317441567152515 -0.5367889792515202
99121904 0.8322705901797559 -0.5361289259324776
100112619 0.8254675465657401 -0.546258155593809
101103338 0.8256646546946231 -0.5458404277927393
102094057 0.8204249900539644 -0.55340308740659
103084776 0.8181014350142618 -0.5557929062167978
104075495 0.8159247282613622 -0.5592016184106497
105066214 0.8089535784028344 -0.568913885913156
106056933 0.8094368963522529 -0.5683290577575839
107047652 0.804199472493914 -0.5752498472860609
108038371 0.8019299315029692 -0.5785938371620906
109029090 0.7997906971234334 -0.5817367660209738
110019809 0.7923739035250852 -0.591241417197451
111010529 0.7925354024821862 -0.5903840528778319
112001247 0.7881446001105973 -0.596820203051409
112991966 0.7852672141344257 -0.6008801173894868
113982686 0.7823551046665169 -0.6029087049559834
114973405 0.7756031116920056 -0.6120160305209587
115964124 0.775861739353942 -0.6112682050754789
116954843 0.770011772506764 -0.61866431844674
117945561 0.7674268692031786 -0.6209264644453738
118936281 0.7657263611610268 -0.6232195192584596
119926999 0.7578086301936876 -0.6322094207350588
120917719 0.7585813728213715 -0.6317197742418011
121908439 0.7532166977019076 -0.637700615701697
122899155 0.7502441606337719 -0.6418462953522012
123889875 0.7479558431732217 -0.6436543577562239
124880595 0.7404083589969147 -0.6520978579328782
125871313 0.7409936525383751 -0.6514124422843278
126862033 0.7353099168180189 -0.6576621889464517
127852753 0.7317418563837034 -0.6607445695404333
128843471 0.7301911328168152 -0.6624796442463522
129834191 0.7212372970822479 -0.6715867525447617
130824909 0.7234776517387925 -0.6705604956721042
131815629 0.7170206676201302 -0.6764002651078896
132806349 0.7142243877674622 -0.6784315881658441
133797067 0.7119970275841015 -0.6815883465872439
134787787 0.7030644962535718 -0.6897916641217134
135778503 0.7043147406558968 -0.6883807998279455
136769223 0.6979063055408321 -0.6952002695262103
137759943 0.6950214990959208 -0.6972511391173972
138750659 0.6936448282933025 -0.6990868026722957
139741379 0.6849232173915663 -0.7078024380099843
140732099 0.6855055606273694 -0.7061917100134327
141722819 0.6793989673206486 -0.7120156538192823
142713539 0.6762832418223065 -0.7151400659652712
143704259 0.6741864261946888 -0.716727765226155
144694979 0.6651903007118697 -0.7244543451302783
145685691 0.6662045850530196 -0.7231097299851315
146676411 0.6603905074600498 -0.7286138408212192
147667131 0.6576084790558918 -0.7305266801519866
148657851 0.6559123901045425 -0.7329234356247571
149648571 0.6459287659631997 -0.7401620923690588
150639287 0.6482460456515056 -0.7395378840390622
151630007 0.6389050824124062 -0.7462132954386841
152620727 0.6393987704157481 -0.7458867064135288
153611447 0.6357975019629979 -0.749432254224264
154602167 0.6277101299486602 -0.7566337869602588
155592887 0.6279824673553073 -0.7548410660169108
156583603 0.6188831717036416 -0.7625037975752206
157574323 0.6188909935498368 -0.7619578089907775
158565043 0.6164198811607423 -0.7654626933038704
159555763 0.6069053728804602 -0.7708087860775596
160546483 0.6081884894596936 -0.7698957985190992
161537199 0.5989958902247764 -0.7762636724991743
162527919 0.5987825439857641 -0.7764992572037797
163518639 0.5956406284702992 -0.7792018865775239
164509359 0.5872996780545255 -0.7858210023295656
165500079 0.5888812866074036 -0.7840866031810908
166490791 0.5782362976041991 -0.7905751838093636
167481515 0.578630064315455 -0.7905749729438166
168472235 0.5756951726805972 -0.7932617929625575
169462955 0.5659574216769296 -0.7991788118687929
170453675 0.5672983854777321 -0.7983260128512999
171444387 0.5576820059422928 -0.8048554290174885
172435107 0.5578234413728917 -0.8037306962702209
173425827 0.5551748296579122 -0.8065174401284236
174416547 0.5447221272422023 -0.8115485388823006
175407267 0.5472777666027762 -0.8119259546120184
176397987 0.5373772869612422 -0.8181289466643551
177388699 0.5376913052725215 -0.816890601225032
178379419 0.5343210049305238 -0.8191849896793085
179370139 0.5248664806728344 -0.8245843572409871
180360859 0.5264308457169848 -0.8238434535773573
181351579 0.5161293122778801 -0.8302208807866688
182342299 0.516832512283849 -0.8292339964480384
183333019 0.5142471025603585 -0.8321116895134925
184323739 0.5032275608451685 -0.8370943210669661
185314459 0.5059562610187103 -0.8360857339211767
186305179 0.4951063971896436 -0.8416552829159764
187295899 0.49629274818014923 -0.8412562346322833
188286619 0.49179515280542424 -0.8426282825400712
189277339 0.48251433274731803 -0.84859327495248
190268043 0.4861578008434772 -0.8467284130014121
191258763 0.47436306116198584 -0.8535708094151285
192249483 0.4752764931283908 -0.8526649175330572
193240203 0.47192519804583144 -0.85504039549505
194230923 0.460319746163652 -0.8596036816527602
195221643 0.4631373758422186 -0.8586892868309393
196212363 0.45235238712265974 -0.8627460146536852
197203083 0.45513947907465135 -0.8620955164331554
198193803 0.4497595807285459 -0.864611643346051
199184523 0.4398715315747794 -0.8704578228347325
200175238 0.4416254200746494 -0.8674003066047797
201165957 0.43129694669205665 -0.8742088048630183
202156676 0.4319144409701459 -0.8729275586404198
203147395 0.42735031180750405 -0.8752389966483605
204138114 0.4194665354301156 -0.8792260924502056
205128833 0.4205297437094574 -0.8786262965283043
206119552 0.40811996412231144 -0.8837416055766505
207110271 0.4111657615970683 -0.8821518207399525
208100990 0.4050779429898284 -0.8850799723055689
209091709 0.39858272672193806 -0.8873589707652562
210082428 0.40000090806699357 -0.8882839375582671
211073148 0.3875597982456859 -0.8918532006797029
212063866 0.38978094420867454 -0.891701513596769
213054585 0.38554896512859466 -0.8933065342708971
214045305 0.3775904364466424 -0.8959351625403169
215036024 0.3777078907152307 -0.8953267439208801
216026743 0.3652597044583481 -0.901216721430391
217017462 0.36939472587000655 -0.8993950537044738
218008180 0.36359656013929054 -0.9017677950028329
218998900 0.35560584978400295 -0.904640382447085
219989618 0.35710420581883606 -0.9055395444336026
220980338 0.34313740059914055 -0.9087601731844449
221971058 0.3463469053515566 -0.906357145429371
222961774 0.341202380972813 -0.9092914265647861
223952494 0.3329706939511439 -0.911827377580557
224943214 0.3364545830417174 -0.9122742440952043
225933932 0.32229712634276336 -0.9163403675202066
226924652 0.32571788472371477 -0.9164221092666036
227915372 0.31961797264587205 -0.9164713968591012
228906090 0.3116703999571373 -0.9189017046041073
229896810 0.3132753569196493 -0.9194857963142873
230887528 0.3000621634963536 -0.9236320610207251
231878248 0.3045638438688151 -0.92231179646184
232868968 0.29895426354397875 -0.9235132333528144
233859686 0.2898654514784854 -0.9263152249916263
234850406 0.29140450450978994 -0.9256732575379312
235841122 0.2774605593491674 -0.9296377914255995
236831842 0.28304683139020625 -0.9280702858396084
237822562 0.2774584105275947 -0.9300101819780157
238813278 0.26776390701333336 -0.9321213742759029
239803998 0.2703184031914064 -0.931207185884616
240794718 0.2569221168491064 -0.9346314848368612
241785438 0.26103403254463686 -0.9346462504431118
242776158 0.2540774008363649 -0.9356236481774689
243766878 0.24665576398216613 -0.9376204864985795
244757598 0.24933648403376996 -0.9375820381924185
245748310 0.23431242800153315 -0.9406170191416804
246739030 0.23991543935119422 -0.9391497060954672
247729750 0.23361502080513705 -0.9415731968084752
248720470 0.22474754301519154 -0.9416953223571052
249711190 0.22618090217809667 -0.942186391140924
250701906 0.21305470414616526 -0.944755778604834
251692626 0.21832430421655447 -0.9449225595503989
252683346 0.21304209467469437 -0.9455952944480307
253674066 0.20381554169058813 -0.9467769223595409
254664786 0.2066443919288465 -0.9463922186408174
255655506 0.19232390044966827 -0.950308730484047
256646222 0.19779440844841317 -0.9481504665530922
257636942 0.19245595109537617 -0.9489368724648753
258627662 0.18206967484406267 -0.9507071926178062
259618382 0.18414758459694217 -0.9505123155428766
260609102 0.1708709617567689 -0.9519857789442685
261599818 0.17563386390156666 -0.9521729656937669
262590538 0.16914814324914315 -0.9522540401548237
263581258 0.16158090046093876 -0.9523233589026905
264571978 0.16415034582316138 -0.9531688075414616
265562698 0.14920454112284862 -0.9546462808224883
266553410 0.1547211975375961 -0.9558698395748452
267544134 0.14842434714011574 -0.9560072030337398
268534854 0.13890546424457206 -0.9566271424496524
269525574 0.1435599155050276 -0.9558852463612973
270516294 0.12994362816400243 -0.9582020258924724
271507006 0.13380982106821387 -0.9569472362352139
272497726 0.12875318313799322 -0.9565709710376827
273488446 0.12026253551171769 -0.9585888388779877
274479166 0.12200827352543629 -0.9594566016335867
275469886 0.10916992608666065 -0.957133784131115
276460606 0.11417783387293291 -0.9586992988417224
277451318 0.1076486961442692 -0.9581185699157139
278442038 0.10062001059017807 -0.9592784387629382
279432758 0.10000453464287457 -0.9601565607206533
280423478 0.08731551475734939 -0.9603989417365716
281414198 0.09388915443540255 -0.9584053561854534
282404918 0.08832807741576255 -0.9612510416400978
283395638 0.07858840770711333 -0.9603552874046546
284386358 0.08252225581783917 -0.9592522789571803
285377078 0.06823673260767553 -0.9624866554272795
286367798 0.07233338573343011 -0.9597352557746351
287358518 0.06741943484168507 -0.9625076101394473
288349238 0.05852949610764295 -0.9616669197149226
289339958 0.0599701057435502 -0.9623812374785721
290330662 0.048304856921005966 -0.9623446065553304
291321382 0.05142458812493247 -0.9628759717398543
292312102 0.045336454671991655 -0.9617740832394147
293302822 0.03860372081895348 -0.9612631726387817
294293542 0.03998380581793558 -0.9615219985070947
295284262 0.02576990152519012 -0.9624097213267102
296274982 0.03075692801493252 -0.9602516994100956
297265702 0.026654504822325998 -0.9600959018476972
298256422 0.018789986706668767 -0.9613008106779056
299247142 0.021817139792945296 -0.9617111013711557
300237857 0.012187562425180844 -0.9562926908686267
301228576 0.0037223275745442153 -0.9641991674940811
302219295 -0.004130814826780672 -0.9574100263790548
303210014 0.005337278791910171 -0.9568360779405053
304200733 -0.013859210956282985 -0.9570566141395174
305191452 -0.0035323754332049605 -0.9565161839156935
306182171 -0.014582264155782364 -0.9609983942162729
307172890 -0.026686182548518924 -0.9602047746136965
308163609 -0.019688280621659164 -0.9560272094598434
309154328 -0.03007742207621562 -0.9606988266308596
310145047 -0.02929270579649186 -0.959428356442483
311135767 -0.03866838169371527 -0.958809388138742
312126485 -0.039473012018365346 -0.9572134777672423
313117204 -0.040421520560199424 -0.9566530109392933
314107924 -0.043889979023482066 -0.9605697081479608
315098643 -0.044100159963247426 -0.9533403671934899
316089362 -0.05557903148980994 -0.953508751836728
317080081 -0.0619918454259148 -0.9535993429795504
318070799 -0.055990234057738016 -0.9557402901915724
319061519 -0.07052744135092383 -0.9586482016306804
320052237 -0.06746343390963114 -0.9557295533116333
321042957 -0.06770773939216089 -0.9565848633204139
322033677 -0.08324769472989678 -0.9540072019636296
323024393 -0.07333495513656176 -0.9537101954188898
324015113 -0.08689871536735727 -0.9549434951563301
325005833 -0.08864768027731815 -0.9550740696643488
325996551 -0.0909293129429717 -0.9487696659598579
326987271 -0.09514611753741214 -0.9520720168326958
327977991 -0.09714829159937574 -0.9519877310225461
328968709 -0.11250202622548129 -0.9448913461010117
329959429 -0.10365494671487578 -0.9453206008455347
330950147 -0.10919725411324152 -0.9496978589236503
331940867 -0.11501514032388922 -0.9494264342784027
332931587 -0.11327217730882694 -0.9501464451501137
333922305 -0.12572136889784077 -0.9481406024040326
334913025 -0.12000784860080166 -0.9496844018023723
335903741 -0.12507625054631927 -0.9540865039607004
336894461 -0.13524042071304734 -0.9468412338572134
337885181 -0.12882819229872886 -0.9512453678185031
338875897 -0.14578874892016605 -0.9489628449208344
339866617 -0.13887234142756563 -0.9472348877912395
340857337 -0.14115749816826623 -0.9485087676450901
341848057 -0.14917126359704425 -0.9444922126079267
342838777 -0.14714444570882668 -0.9485061005012243
343829497 -0.15850602802771696 -0.9451685355974646
344820217 -0.16088909002644375 -0.9408173825332486
345810929 -0.15782993269448298 -0.9459968154144482
346801649 -0.1749843276727933 -0.9424178233986107
347792369 -0.16464390787725752 -0.9454585148633163
348783089 -0.17457680454496896 -0.9364419026715337
349773809 -0.17634937126378097 -0.9444548214398932
350764525 -0.1802160643665056 -0.9410320212377348
351755245 -0.1873128180897642 -0.9444713081096149
352745965 -0.1836553864983381 -0.941030326716273
353736685 -0.1978431156807382 -0.9366535367421395
354727405 -0.1908072736608663 -0.9408174585322678
355718125 -0.19742018170096987 -0.9339204995042476
356708841 -0.20652613953064505 -0.9355331305110565
357699561 -0.2028523254018397 -0.9379510442286647
358690281 -0.21241010774397664 -0.9363993182557571
359681001 -0.20903260494013917 -0.9402698462595263
360671721 -0.21222619503511903 -0.9337999186714631
361662437 -0.22395864644009816 -0.9275796954653905
362653157 -0.21867469168741827 -0.9385800308204221
363643877 -0.22891232112975032 -0.9319231256235674
364634597 -0.22460876430457644 -0.941013905157437
365625317 -0.22837761115684116 -0.9320360741732362
366616029 -0.23920444274238908 -0.9266955576113259
367606753 -0.23375453850740077 -0.9278565160931141
368597473 -0.25012947595242696 -0.928786606675863
369588193 -0.23900824831874998 -0.9276250490233715
370578913 -0.24632118013189142 -0.926621127460356
371569625 -0.25055402161955875 -0.9250231550445369
372560345 -0.2545357771249083 -0.9293293378615115
373551065 -0.2588214628938096 -0.9230361344939622
374541785 -0.25541316275717335 -0.9259926216976779
375532505 -0.25700698116306175 -0.9261947417778524
376523225 -0.2641429377216037 -0.9233692969091083
377513937 -0.2615325782253808 -0.9236773888721346
378504657 -0.27306588772487705 -0.9192159017905387
379495377 -0.2681728983508915 -0.9211195200185838
380486097 -0.275155269946098 -0.9177615127672221
381476817 -0.28579498495323186 -0.9153978534090595
382467537 -0.27411230025194694 -0.9151068514721954
383458257 -0.2905132850452173 -0.9136949697462966
384448977 -0.2851688102151463 -0.9165555957143519
385439697 -0.2847082978255431 -0.9101549645187501
386430417 -0.2958598708367753 -0.9077456429192126
387421137 -0.2924713127935921 -0.9084693625858054
388411857 -0.30654986088941716 -0.9063323634070324
389402577 -0.3001837058928854 -0.9092842511025376
390393281 -0.30356438362230004 -0.9053224341123064
391384001 -0.30476809333738697 -0.9028354404908853
392374721 -0.30435963452817016 -0.9054859283146828
393365441 -0.3178613570421751 -0.8994508093337699
394356161 -0.31136531080930946 -0.9015302513423812
395346881 -0.31698808067182926 -0.9009911966659524
396337601 -0.32631510229868826 -0.8980279323621426
397328321 -0.31885465153481984 -0.899228321066857
398319041 -0.3349185079279357 -0.893668658878525
399309761 -0.32389216086947503 -0.8948858416152773
