# Hz S RI R 50
50000 0.07300340179355094 -0.273833516160203
1040719 -0.011165092526514651 -0.01510236259984648
2031438 -0.011106132593178726 -0.0077107420159152696
3022157 -0.011266392873988477 -0.005148506259540567
4012876 -0.011656400388091064 -0.0037800668924188215
5003595 -0.011711102375962993 -0.003233632950230486
5994314 -0.011668358670782681 -0.002490612109994547
6985033 -0.011703483151841543 -0.0020080897912459123
7975752 -0.011628358975193813 -0.001733119057626612
8966471 -0.011709972710230486 -0.001427291956425732
9957190 -0.01148977230210728 -0.0010937003249977728
10947910 -0.011765057609039247 -0.000999371582267356
11938628 -0.01193200854041263 -0.000854390301831604
12929347 -0.011648479796223653 -0.0006271198807413785
13920067 -0.0115123498386131 -0.0007241971145818692
14910786 -0.011886763710227285 -0.0005600460638989662
15901505 -0.011439019774083478 -0.0001988402506769948
16892224 -0.011540330328216825 1.784590284968454e-05
17882942 -0.01146971114703181 -0.000144717750960671
18873662 -0.011342675620484861 0.00025453919992436626
19864380 -0.01186565309336509 5.4526819120452544e-05
20855100 -0.011221435480302936 -4.707931874193827e-05
21845820 -0.011533043626878809 0.0005595890116156746
22836536 -0.011837893049107184 0.00016657819867618078
23827256 -0.01166156275197361 0.00032085671805340553
24817976 -0.011608456401490804 0.0005475372458481868
25808694 -0.011460886537963252 0.0005303319960354744
26799414 -0.011830398701246813 0.0005634752064101759
27790134 -0.011584353344314742 0.0003800273607976954
28780852 -0.01136227162939431 0.0007148191856485279
29771572 -0.011634583764492603 0.0009001165132878874
30762290 -0.011579939056230943 0.0006562908132873836
31753010 -0.011699698525940815 0.0009624202530938415
32743730 -0.0113838953984543 0.001235121399595105
33734448 -0.011368214295161773 0.0010387231850746777
34725168 -0.011542259279193267 0.001036748084752731
35715884 -0.011573137260331443 0.001143662229289683
36706604 -0.011350116661043406 0.0014496877610485981
37697324 -0.01137226638056381 0.0013143540170789943
38688040 -0.011246064495396038 0.0014710912584137313
39678760 -0.011451414849866509 0.0012292275559944372
40669480 -0.01132557045816547 0.0016271808102052946
41660200 -0.011114646699563302 0.0016560649962392442
42650920 -0.01142453631012134 0.0016722809203869365
43641640 -0.011342725573750873 0.00162966941620924
44632360 -0.011441166901805905 0.0016434399796003004
45623072 -0.010970714623022938 0.0017672717644675593
46613792 -0.011335188088216264 0.0017707610625144914
47604512 -0.01123413405694781 0.002028171623002724
48595232 -0.011058655160285933 0.00193597105296961
49585952 -0.011097828964382786 0.0019839270952776897
50576668 -0.01128416766681657 0.001992087761485326
51567388 -0.01123061909889421 0.0020532265029458616
52558108 -0.011293199302493707 0.002209602905389725
53548828 -0.011250622849695082 0.0022777599225446473
54539548 -0.010964359985925178 0.0020638492316341875
55530268 -0.01135659862683608 0.002038533092105088
56520984 -0.010965549112088559 0.0021045930633429542
57511704 -0.011059233525644203 0.0025090494544005326
58502424 -0.011015312024827917 0.0027581285771445044
59493144 -0.010979617563529599 0.002672649084595764
60483864 -0.010952497945673389 0.0023542206039426587
61474580 -0.011027177641879674 0.0023102503270063706
62465300 -0.010900877180379298 0.002413273681677901
63456020 -0.010926476929260959 0.0027799387878937386
64446740 -0.010835989368835367 0.002371171548784658
65437460 -0.010574269566037053 0.0024920393567671247
66428172 -0.010983507850959359 0.0027180232761570442
67418896 -0.010986819503711321 0.002721035159014926
68409616 -0.0108652383148067 0.0027084142446083537
69400336 -0.010836424197600883 0.002593460142490183
70391056 -0.010822236069236421 0.0031526329153323
71381768 -0.010703072426757896 0.0030385308756393117
72372488 -0.010919600886637506 0.0029144465132198098
73363208 -0.010780275429901886 0.0028794565100516358
74353928 -0.011154680835810041 0.0031888737019039604
75344648 -0.01075747076540396 0.0031446109341900378
76335368 -0.010688830238281016 0.0028364460292770173
77326080 -0.010803206291857468 0.002988841581800973
78316800 -0.011064229738287565 0.002905388097583235
79307520 -0.01084669607566299 0.003172387800625448
80298240 -0.010777233365093765 0.0030986603960713984
81288960 -0.010758061869848025 0.0030462390985782216
82279680 -0.010617440084926386 0.003035841829978138
83270400 -0.010699804361220363 0.003213870707393165
84261120 -0.011046390425500827 0.0036982731504596185
85251840 -0.011033257872456705 0.0033944981787002383
86242560 -0.01057282348323713 0.003448893866185319
87233280 -0.010773326885415843 0.003532688975950059
88224000 -0.010459540916871667 0.0034727935268198964
89214720 -0.010638361287408195 0.003371800968392027
90205424 -0.010449474129566549 0.003576323650690236
91196144 -0.010728486060501126 0.0038667513205815464
92186864 -0.010595211009593933 0.0036638433696480274
93177584 -0.010857906805171376 0.0038186306278576387
94168304 -0.010610230843296042 0.004012592388268518
95159024 -0.01066757289739492 0.003842577885910862
96149744 -0.010511800759751016 0.003894967364078144
97140464 -0.010715518360135116 0.0038833935410164245
98131184 -0.010417277344020122 0.003719921579955866
99121904 -0.010388198370324684 0.004185014644960359
100112619 -0.010863380846565848 0.004343593655693798
101103338 -0.010546359678801541 0.004205764724553153
102094057 -0.010771881051429384 0.004176985322256992
103084776 -0.010309139644867253 0.004426306289837562
104075495 -0.010532652007778772 0.004118699005849573
105066214 -0.010359192267114202 0.00434450882164624
106056933 -0.0102613603771618 0.004680884078779113
107047652 -0.010426393016647967 0.0040958770520795875
108038371 -0.010354877406579461 0.004410435846083451
109029090 -0.010365272930368125 0.0046190273304603045
110019809 -0.010527446692858008 0.004685266742458824
111010529 -0.010507119411221 0.0046977150522228076
112001247 -0.010232691231323999 0.004551830011032066
112991966 -0.010339523515502463 0.00452160774241455
113982686 -0.01002525641440453 0.004852874089197026
114973405 -0.01041109504278863 0.004778271909760059
115964124 -0.010255522870363975 0.004963005251696678
116954843 -0.010607435741656446 0.004643396714955681
117945561 -0.010266633464989676 0.004661210652637476
118936281 -0.010518866842078046 0.0051729284431595935
119926999 -0.010297957757967442 0.00498839963038898
120917719 -0.010647600179925736 0.005010906358382633
121908439 -0.010327959380069446 0.00537466610963359
122899155 -0.010263754839523164 0.0053605662502599835
123889875 -0.010550259406031088 0.005195019619630253
124880595 -0.010023457143237702 0.00507630806013945
125871313 -0.010132795844765872 0.005429068294359118
126862033 -0.01014693334968445 0.005358867609128368
127852753 -0.010524156356914872 0.005521926974134461
128843471 -0.009964462810302657 0.005605777626650727
129834191 -0.010358210324117136 0.005575658018858199
130824909 -0.010221984740763228 0.0057832787941406215
131815629 -0.010222602095302635 0.005743624265408846
132806349 -0.010540499483767276 0.005552946258172914
133797067 -0.009948031998675607 0.005483155541776995
134787787 -0.010191081592094541 0.005537733808703911
135778503 -0.010578346027242443 0.005667107567681434
136769223 -0.01033311101484412 0.0060937345295524175
137759943 -0.010271583329463672 0.005508744169547799
138750659 -0.009834556458886734 0.005908084940406631
139741379 -0.009963620922202165 0.005897621248722875
140732099 -0.010176491279219173 0.006080406495517878
141722819 -0.00971386647237832 0.006149600073007294
142713539 -0.010344724906934227 0.005918874354938858
143704259 -0.010193743702080376 0.006170465822571728
144694979 -0.010031252951834355 0.0063471842750006165
145685691 -0.009899011590069926 0.006485227050823161
146676411 -0.009656801414195587 0.00610547777197158
147667131 -0.010007389125509704 0.006699556532285488
148657851 -0.010033750186967977 0.006585949796116523
149648571 -0.01038966388134862 0.006575821896551224
150639287 -0.010079209536243217 0.00616213588634601
151630007 -0.010038205511908895 0.006459931604144538
152620727 -0.009691114425219232 0.006428761163828194
153611447 -0.009948182795720918 0.006899414036958223
154602167 -0.009938656715573424 0.006220193150025077
155592887 -0.009893902925547501 0.007095199789486831
156583603 -0.009776814808704813 0.006455912151179607
157574323 -0.010109499653946764 0.00659124110443409
158565043 -0.009940436200494734 0.006593643605687972
159555763 -0.009875839547907057 0.006874451860803866
160546483 -0.010023527065294349 0.007367841734799817
161537199 -0.010157044132563815 0.00672008325859549
162527919 -0.010285222253340214 0.007148169510967332
163518639 -0.010099006957331713 0.006844645142341651
164509359 -0.009611001647846795 0.00703136730009139
165500079 -0.009627387224075338 0.006988616007342748
166490791 -0.009539380927542024 0.0075569983788149825
167481515 -0.0097162583251883 0.007154112271389691
168472235 -0.009894096076946994 0.007076926035360455
169462955 -0.01002536670149181 0.007368164400129026
170453675 -0.010304127959525317 0.007798588921640368
171444387 -0.010258116049064906 0.00779735944455741
172435107 -0.009918456183656018 0.00769649950740577
173425827 -0.009533800713003337 0.007791347596397379
174416547 -0.00954492924266326 0.0077229523776811
175407267 -0.009555936385819362 0.007327937766363346
176397987 -0.009675463057143317 0.0076000602096596035
177388699 -0.009768153231384111 0.007941587480121264
178379419 -0.009823075191857414 0.007876354813632256
179370139 -0.00993903709685597 0.008197774099919553
180360859 -0.010059799583731703 0.00841341764611726
181351579 -0.009557117271005609 0.007599873180427814
182342299 -0.010048063414010364 0.008007421178157127
183333019 -0.009922162686668266 0.007682610240903122
184323739 -0.010128733747192763 0.008146132909338931
185314459 -0.009883067588853437 0.008191901009990713
186305179 -0.00982032344141892 0.008106532512452042
187295899 -0.009866446472451976 0.008416807073801436
188286619 -0.009741789317598684 0.008801703043284216
189277339 -0.010052168044865528 0.008468076690714619
190268043 -0.00908222485191368 0.008281525784843495
191258763 -0.009327431450981808 0.007822000205769649
192249483 -0.009726605873304343 0.008652052569144222
193240203 -0.009647173205460229 0.009016995550746705
194230923 -0.009880636221170306 0.008812113124526864
195221643 -0.01010256942969403 0.008754446575729874
196212363 -0.010207363647321624 0.008741016474710714
197203083 -0.00949355446777657 0.00877120301144203
198193803 -0.010104376179121058 0.00893120191879621
199184523 -0.009589882810755205 0.008725361623082717
200175238 -0.009744909834561858 0.009463094062801212
201165957 -0.009214116391537299 0.008782789242315684
202156676 -0.010155163330404945 0.008971455769913678
203147395 -0.009980780204562431 0.00931724172670193
204138114 -0.010167604919176681 0.00905523376093041
205128833 -0.009713428292139831 0.009467240301981573
206119552 -0.009777682029310827 0.00934292433487946
207110271 -0.00977467295510558 0.009364660933909643
208100990 -0.009949803958342818 0.00912360148334796
209091709 -0.00954086841108411 0.009335161383340737
210082428 -0.009737386407531481 0.009032670510344893
211073148 -0.009678901768817309 0.009329135617763823
212063866 -0.010024897414546763 0.00939396439655647
213054585 -0.00964809458415266 0.009648683198749553
214045305 -0.00890008093225351 0.009857900724450567
215036024 -0.009593412030284486 0.010296994355793313
216026743 -0.009187226049700242 0.009684320115481827
217017462 -0.009112462151924619 0.009635572650095172
218008180 -0.009507116307308616 0.00941000020396708
218998900 -0.009756501853140503 0.00958583779088004
219989618 -0.00999876876065282 0.00953416163419163
220980338 -0.0097769533456616 0.009885109897528726
221971058 -0.009961057930571343 0.010394812933338422
222961774 -0.009770516749316213 0.010087413754300483
223952494 -0.009593475164262089 0.010003963126271219
224943214 -0.009171094558249661 0.009551992767264521
225933932 -0.009976318490795428 0.009815514168087047
226924652 -0.009756574818417033 0.00943623767629714
227915372 -0.009849035989614171 0.010193682108607056
228906090 -0.009297625708782644 0.010282728581890284
229896810 -0.00947902278836594 0.010346378821890349
230887528 -0.010113815328627634 0.009821381765812254
231878248 -0.00898979698517572 0.010202243340776294
232868968 -0.009591613744638032 0.010608993607724307
233859686 -0.00950983522669434 0.010452245845024171
234850406 -0.009296275641095718 0.010409725411487363
235841122 -0.009804556187579635 0.010740683022495697
236831842 -0.008971497953338384 0.01102029931483897
237822562 -0.009615886048984588 0.010483197718297702
238813278 -0.009483288783154216 0.010659026805827096
239803998 -0.009139205778729663 0.01080796373804242
240794718 -0.009226271959684977 0.010968498275690977
241785438 -0.009358364883684854 0.010660831932209564
242776158 -0.009954666215698982 0.010928152120285667
243766878 -0.010292082360482808 0.010773844369873515
244757598 -0.009636368575309098 0.010770034286159226
245748310 -0.009204146606849456 0.010635733869936657
246739030 -0.009838957300761546 0.010768876422790051
247729750 -0.009846947835735934 0.010846325541995501
248720470 -0.009722686477912038 0.011147402010383932
249711190 -0.009995059819603427 0.011312491397735998
250701906 -0.010078660512114899 0.010801643470650671
251692626 -0.010009976085818325 0.010625424760835873
252683346 -0.009591643857305838 0.011278233586678696
253674066 -0.008979671967380955 0.010918836603630076
254664786 -0.009382069227249445 0.010999309272645702
255655506 -0.009955760861136186 0.010852768705359795
256646222 -0.009443427552758055 0.011225294455815714
257636942 -0.00968061473661335 0.01156325035396965
258627662 -0.009932715630169878 0.011390713902396685
259618382 -0.009765684958108286 0.011416802174717586
260609102 -0.01000675056087016 0.011697099509196507
261599818 -0.009280866194460525 0.01170031410208454
262590538 -0.009825138528282264 0.01210852088492736
263581258 -0.009756569710604767 0.0121573070352647
264571978 -0.009439991452818744 0.012160752223451593
265562698 -0.010154414978703629 0.011559584575673696
266553410 -0.009585612942678944 0.011038411298353812
267544134 -0.009950862376614177 0.011752311607691971
268534854 -0.010039834154108574 0.012087933474505557
269525574 -0.010121910944033538 0.011761753185498396
270516294 -0.009425278999593686 0.012340938749804345
271507006 -0.009459779671758827 0.011329293410738116
272497726 -0.009681935250110778 0.012571401662937026
273488446 -0.008930795452675793 0.011526906137895403
274479166 -0.009273216066256099 0.011572228173863542
275469886 -0.008963079156257438 0.012395378897958054
276460606 -0.009338218228533375 0.012015576492783436
277451318 -0.009251985258181779 0.01268423304195837
278442038 -0.009362933396625821 0.012185280335180708
279432758 -0.010181073526668928 0.012357764069619429
280423478 -0.00918398835179174 0.012671722403967675
281414198 -0.009658181125019295 0.01258548164760428
282404918 -0.008654913707572369 0.012333076099894485
283395638 -0.009043741158106845 0.013434443157306937
284386358 -0.009368750878896022 0.013211129704118781
285377078 -0.009943480229359945 0.011882849857276915
286367798 -0.009099990278857842 0.0132903309915952
287358518 -0.010173872037280957 0.011988101891933146
288349238 -0.009617295229610062 0.012535492889288262
289339958 -0.009499808653481703 0.012432415183635373
290330662 -0.009210305594127369 0.012423338142151623
291321382 -0.009992123180975573 0.012292274261119772
292312102 -0.009620320290693818 0.012662478532981369
293302822 -0.009314523097909045 0.01295009658607663
294293542 -0.00958053851170989 0.013161286401714156
295284262 -0.010273009401089803 0.012682905003097582
296274982 -0.009249483827074868 0.013893067491114266
297265702 -0.009460055503028031 0.01332422442940019
298256422 -0.0089211181340476 0.012845951533006647
299247142 -0.00936873743472302 0.013293492674132044
300237857 -0.009235503515521453 0.014177043657275706
301228576 -0.010438018056809679 0.010599682903823467
302219295 -0.009718537006118399 0.01367910649784758
303210014 -0.009141633136961126 0.01433766192531998
304200733 -0.009298364479771998 0.013362614364931635
305191452 -0.009473052256492576 0.01482199030186903
306182171 -0.011365361161747113 0.012396939697141934
307172890 -0.011522919464601865 0.012815149428896456
308163609 -0.009974216339589793 0.013300931442985527
309154328 -0.009541947006808996 0.013655927107479454
310145047 -0.01023681625352257 0.013438438375480572
311135767 -0.011812577261783735 0.014246536177224564
312126485 -0.008983360563739724 0.013444699848753983
313117204 -0.010568945411609647 0.015368135813268341
314107924 -0.006672680380637242 0.012678443552001656
315098643 -0.008772046517791754 0.01450827950653608
316089362 -0.012041510817271492 0.013645994152362118
317080081 -0.009324362875821827 0.014491913340413427
318070799 -0.008593064126365884 0.013899811939641004
319061519 -0.01052471695274704 0.01233222182561428
320052237 -0.009385195051101235 0.013404449486520998
321042957 -0.008535483359347777 0.013879630411046721
322033677 -0.010571911044199111 0.012911486153636059
323024393 -0.009247985201220095 0.013290333761097589
324015113 -0.00923864349584744 0.013600596037841533
325005833 -0.010529141205467326 0.014025611412115023
325996551 -0.009860195231678163 0.014298832072237373
326987271 -0.008187571401135846 0.015494706187500203
327977991 -0.010201031521770081 0.014370069570671608
328968709 -0.009822360451433632 0.013927197796270146
329959429 -0.007790647691025524 0.014949080779523904
330950147 -0.009445703858753396 0.016086266047194615
331940867 -0.008605327650610275 0.01583962162431139
332931587 -0.00983486122963697 0.014074707513303114
333922305 -0.009071779064137225 0.01343571519682805
334913025 -0.008735442637181887 0.014396735248082965
335903741 -0.008512227607543174 0.013670091530591096
336894461 -0.009391014766884033 0.014497362118722495
337885181 -0.009525524895716507 0.013981155210893133
338875897 -0.010107048844047234 0.013531151499727858
339866617 -0.01024127027437862 0.015550211718125562
340857337 -0.007757115312327515 0.015020634200467075
341848057 -0.010255264929588125 0.013632862436974029
342838777 -0.008775179193726265 0.014798737991237085
343829497 -0.00791577664309137 0.013812291993953986
344820217 -0.011790508945143814 0.01731174505059322
345810929 -0.008835600744893715 0.014461868839778229
346801649 -0.011286141876374901 0.014924961965356661
347792369 -0.008567299858904807 0.014666043884276989
348783089 -0.008852506037350065 0.017004619735120595
349773809 -0.009352169618017797 0.016312399472419165
350764525 -0.00900130428383749 0.015598200458407341
351755245 -0.010210035903053112 0.014596720831148447
352745965 -0.009202703000863592 0.014383800292173768
353736685 -0.008784999944917984 0.013947446318636588
354727405 -0.009040185054031697 0.015330203647430863
355718125 -0.010904799647301093 0.0176534521852238
356708841 -0.009814188713577943 0.015122663397088692
357699561 -0.00965751336121395 0.015877441112813986
358690281 -0.011190719566513203 0.015833542262752315
359681001 -0.00989703974848065 0.014450617799719817
360671721 -0.01030353872962945 0.01670022731093338
361662437 -0.01108402958963309 0.016609728779686667
362653157 -0.010091896633285776 0.016269546547423665
363643877 -0.009780415947133757 0.015534833923307387
364634597 -0.01002833780998309 0.015781577308065464
365625317 -0.009183374040901438 0.016553495856128666
366616029 -0.010035943192649251 0.015678886822938255
367606753 -0.011206663112759228 0.01711640441751115
368597473 -0.008585465603607208 0.015980848129479173
369588193 -0.009417760831337859 0.015545379153747384
370578913 -0.009877007418015052 0.016326002159081778
371569625 -0.009097671306289214 0.016373895896368583
372560345 -0.012432640882903863 0.013381176789075853
373551065 -0.009774084070582967 0.016543094851582296
374541785 -0.009197711536729693 0.015569798263766229
