# Hz S RI R 50
50000 1.0001044545919198 9.576697328381419e-06
1040719 0.9995970772012465 -0.0010025815831397656
2031438 0.9997181341005204 -0.0016599556148986204
3022157 0.9991132090777041 -0.0021587997462660523
4012876 0.9992768575996643 -0.002581957267345101
5003595 0.9992059928395245 -0.003165151273638605
5994314 0.9992661206982577 -0.003689012596673389
6985033 0.9990554745910901 -0.004293117172945879
7975752 0.9991106930429005 -0.004930616094093582
8966471 0.9991925339956337 -0.005178987690204583
9957190 0.9992056418379108 -0.0061516468821490615
10947910 0.9993316053335788 -0.006192781421874136
11938628 0.9989417025405993 -0.007322167100685845
12929347 0.9991952080633847 -0.007847529283184402
13920067 0.9992180439116634 -0.008461135987274616
14910786 0.9991816630417735 -0.00886665464707191
15901505 0.998984250558377 -0.009694764684143656
16892224 0.9989947812915599 -0.010304891819621576
17882942 0.999203758194656 -0.01075794745023105
18873662 0.9989104906146705 -0.011182127337388686
19864380 0.9991093625764135 -0.012129414879009998
20855100 0.9986641995415237 -0.01243965785566754
21845820 0.9991364304149963 -0.01341802621183164
22836536 0.9988990155263755 -0.0136802524209569
23827256 0.9990297063062026 -0.014195840149360364
24817976 0.9986388623571881 -0.014511728528693674
25808694 0.9990067298027563 -0.015639311380025386
26799414 0.9986768228164432 -0.016367399752336677
27790134 0.9986476922147395 -0.01632168888758481
28780852 0.9989054343632157 -0.017326099039597236
29771572 0.9987794153819206 -0.017701599192908018
30762290 0.9990921765426618 -0.018146370458981344
31753010 0.998529635410078 -0.019169912527404673
32743730 0.9987022232544102 -0.019177686068334945
33734448 0.9987538028132988 -0.0201129443483322
34725168 0.9989897342531789 -0.020471546588939234
35715884 0.9986644609458396 -0.020664612410045045
36706604 0.9983086133654849 -0.02221844298661273
37697324 0.9988721640393182 -0.022518419319276513
38688040 0.9983840499345876 -0.022491017276503003
39678760 0.9985448649121881 -0.02341964186046653
40669480 0.9984827767962657 -0.02427009680500397
41660200 0.9980658609037335 -0.024487488203586195
42650920 0.9983795701167751 -0.02515209343125793
43641640 0.9987937539511245 -0.025745809340764078
44632360 0.9985109772923556 -0.02655413135332793
45623072 0.9967109043072735 -0.02680874353744728
46613792 0.9987632402936893 -0.027626375796830964
47604512 0.9986087774807005 -0.02823040451501634
48595232 0.9981549018407041 -0.0287585467461398
49585952 0.9985693368420834 -0.029294600414879003
50576668 0.9977892981927194 -0.02950924439679168
51567388 0.9985382274846263 -0.030309423342413457
52558108 0.9981495229267684 -0.03101189898473763
53548828 0.9982013749452581 -0.031513488770484446
54539548 0.9980723230855564 -0.03209283814315415
55530268 0.9984221342387578 -0.0319829756492541
56520984 0.9980468791974246 -0.03263527804080528
57511704 0.9983878233440445 -0.03295210290854564
58502424 0.9974004092867562 -0.03475297255052121
59493144 0.9975024943574335 -0.03522515546458445
60483864 0.9982866127650379 -0.03608314087447148
61474580 0.9965776270232174 -0.034830056891160956
62465300 0.9974625152132166 -0.037398464536399334
63456020 0.9989923612980595 -0.038369915327585276
64446740 0.9985612144445651 -0.03790991157651646
65437460 0.9987324442512124 -0.03832010895840401
66428172 0.997610698985707 -0.03957118564714068
67418896 0.9971642010879356 -0.040089122360328154
68409616 0.9973636084960521 -0.03976640670755241
69400336 0.9974216495777687 -0.04088711974492018
70391056 0.9967852095010341 -0.041968047833701005
71381768 0.9968690231755786 -0.04164907099524101
72372488 0.9967259878523924 -0.04199440155993532
73363208 0.995890166835505 -0.04392327902264014
74353928 0.998191898922394 -0.04367288485197079
75344648 0.99705933522616 -0.04424818510244492
76335368 0.9970889745085897 -0.04501340816597446
77326080 0.9972754393042508 -0.045315265249632995
78316800 0.997578657414749 -0.04594017102768769
79307520 0.9972891064792689 -0.04721668563204382
80298240 0.9970387146014462 -0.046814134837268574
81288960 0.9976407139749028 -0.047927041439732664
82279680 0.9970639031591152 -0.04800298288979582
83270400 0.9974556258396124 -0.0490385118210284
84261120 0.9974705132239936 -0.047297106947842206
85251840 0.9980290764622631 -0.047542885469276173
86242560 0.9930245969694714 -0.05194819184697382
87233280 0.9987123512647567 -0.05380897570906815
88224000 0.9968031766565314 -0.052408575348611416
89214720 0.9964961514824018 -0.053261751281223034
90205424 0.9977713898827065 -0.052865196606737136
91196144 0.9944588740850546 -0.05459369555240248
92186864 0.9953620019675978 -0.05576753435981317
93177584 0.9951875415471383 -0.05566454515491922
94168304 0.9968307997249307 -0.05555681935595983
95159024 0.9965080244584426 -0.05644717876791316
96149744 0.996248184355223 -0.05743442415686949
97140464 0.9953145714083754 -0.055561339995494466
98131184 0.9947126144829972 -0.05793097228317942
99121904 0.9976419306315097 -0.057318969828943876
100112619 0.9958203195596275 -0.05858809372093694
101103338 0.9958594778126139 -0.059282989641470905
102094057 0.9959991059856431 -0.060169907467851516
103084776 0.9958839123153647 -0.06060692561807082
104075495 0.9960538074563166 -0.06119247420103025
105066214 0.9965457783757573 -0.06174658120189658
106056933 0.9958536033038023 -0.06291739885891856
107047652 0.9953218789885669 -0.06308335679783461
108038371 0.9964002476084931 -0.06338424293348006
109029090 0.996128860146319 -0.06441956977155751
110019809 0.9959411129467145 -0.06568682709158408
111010529 0.9956286335386035 -0.06554491072167859
112001247 0.9954787766423502 -0.06577849563881363
112991966 0.9960585009822345 -0.06639823229959102
113982686 0.9954229702903724 -0.06818841447103742
114973405 0.9955223808125578 -0.06822907369537534
115964124 0.9952986072847658 -0.06864387810142733
116954843 0.9950604057884174 -0.0699278702300863
117945561 0.9947460783265347 -0.07031177390493835
118936281 0.9950078892186849 -0.07082885907563924
119926999 0.994772213361366 -0.07144548003666923
120917719 0.9950242196326583 -0.07157602544154051
121908439 0.9950251977027426 -0.07214397897295897
122899155 0.9953856595715086 -0.07287427547410202
123889875 0.9945744248676566 -0.07336641304285192
124880595 0.9947854480756856 -0.0740875871512366
125871313 0.9947857524104067 -0.07466139875680312
126862033 0.9950347472963005 -0.07493953090949142
127852753 0.9941365835220084 -0.07623714409345624
128843471 0.9944334443463563 -0.07652412636479412
129834191 0.9943330586965566 -0.07702890623060467
130824909 0.9941796958132693 -0.07795016268060448
131815629 0.9943659135580356 -0.07847398585005762
132806349 0.9945063381674524 -0.07889495980947708
133797067 0.9945553985585861 -0.07938482815744112
134787787 0.9943814054637914 -0.08003082341089117
135778503 0.9938983102037293 -0.08070498433354048
136769223 0.9943919834387343 -0.08186864806878472
137759943 0.9938717132728714 -0.08220347251146858
138750659 0.9938855872347714 -0.08223473979434001
139741379 0.9940289840547806 -0.08295187416250042
140732099 0.9937068012433228 -0.08389256026831278
141722819 0.9937804203688301 -0.08443855263708672
142713539 0.9941432889640298 -0.08469471846084414
143704259 0.9937856829856867 -0.08544891819413825
144694979 0.9933812565481336 -0.0862057168511687
145685691 0.9935605392040402 -0.08661093643372378
146676411 0.9937295265245395 -0.08676780422999865
147667131 0.9936136145265133 -0.08735606154007738
148657851 0.9934368556977194 -0.08762330606790122
149648571 0.9932254848524226 -0.0883888332347956
150639287 0.9932771819598474 -0.08954897820686376
151630007 0.9933167810071694 -0.09000205242894314
152620727 0.9930160657644518 -0.09043399660115284
153611447 0.9937730454857205 -0.09105786782080073
154602167 0.9936068964403664 -0.0917269667691421
155592887 0.9931856823326102 -0.09217474684591011
156583603 0.9930705100673112 -0.09325065214564789
157574323 0.9932567363759576 -0.09316205063853165
158565043 0.9926378086394853 -0.09373206638812313
159555763 0.9928645212881231 -0.09413219250759669
160546483 0.9925845581364036 -0.09491051347331057
161537199 0.9919685209697571 -0.09623002317265823
162527919 0.9924306252626042 -0.09608265965198055
163518639 0.9923375816982432 -0.09663941679751323
164509359 0.9924248637059034 -0.09732073785683548
165500079 0.9921986350755626 -0.09796846112348062
166490791 0.9923459028985885 -0.09877266975197241
167481515 0.992210213318991 -0.09952304739065791
168472235 0.9921906755509854 -0.09995316368315307
169462955 0.9923503970241846 -0.10062186551319517
170453675 0.9920748425735731 -0.10155142408966354
171444387 0.9918585979711237 -0.10122481584487714
172435107 0.9913722228590179 -0.10190026592140514
173425827 0.9920559329489659 -0.10262067796679294
174416547 0.9914707360312455 -0.10369977333973156
175407267 0.9916388725098315 -0.10424967355248618
176397987 0.991942808640763 -0.10420765481060708
177388699 0.9909609203842368 -0.10520302811082197
178379419 0.9910539925619308 -0.1056472264777338
179370139 0.9912107061991681 -0.10566192647480806
180360859 0.9913728538710852 -0.10623171226551693
181351579 0.9909329317454808 -0.10713257884389371
182342299 0.9910215843090197 -0.10763981357643865
183333019 0.9917762867143073 -0.10744696083232326
184323739 0.9910513256245981 -0.10875802458448895
185314459 0.9902997101695181 -0.10980075658914637
186305179 0.9905456055720262 -0.10968218364715603
187295899 0.9907335197589041 -0.11074630133367855
188286619 0.9907061554637597 -0.11126228639390974
189277339 0.991035698910403 -0.11114089762436564
190268043 0.9906979267357894 -0.11178646773523596
191258763 0.99055577850849 -0.11231773223917137
192249483 0.9903010216381475 -0.11324995399039227
193240203 0.9916598345042344 -0.11341878481163037
194230923 0.990207263196677 -0.11538146693188195
195221643 0.9905416721737322 -0.11546164691903904
196212363 0.9900715333386112 -0.11605422392721755
197203083 0.9894647948821066 -0.1156803277206014
198193803 0.9898590547501365 -0.1170166021970886
199184523 0.9896837663074831 -0.11777511897701595
200175238 0.9896180548006397 -0.11811065488861683
201165957 0.9899623748203922 -0.11713742744226685
202156676 0.9888006033869701 -0.11954211228520496
203147395 0.9887258267542983 -0.1192538732863517
204138114 0.9895430481044192 -0.12078466119432009
205128833 0.9886958118431536 -0.12096053172613938
206119552 0.9889322715240718 -0.12110541636617148
207110271 0.9887231903103474 -0.1224052017069635
208100990 0.9891325544019783 -0.12280330836147922
209091709 0.9887672332453492 -0.12281110529362207
210082428 0.9893256091598664 -0.12377977226857147
211073148 0.9874857306445998 -0.12354943966421027
212063866 0.988869883496988 -0.12494903026034183
213054585 0.9888270842914006 -0.1244057027064145
214045305 0.9885352173671392 -0.12616590930913132
215036024 0.9888576127997561 -0.1267027312395441
216026743 0.9890174931184879 -0.12653384141762491
217017462 0.988129664276325 -0.12659839631632241
218008180 0.9882373235867977 -0.12793935200836143
218998900 0.9884420968715049 -0.12855311476203785
219989618 0.9885678835423244 -0.128907859568015
220980338 0.9880143001751178 -0.12920391291922564
221971058 0.9879346348949282 -0.13042397272491557
222961774 0.9879641066381561 -0.13102682382717015
223952494 0.9872122421581635 -0.13136265860650578
224943214 0.9880031660516769 -0.1314260158734569
225933932 0.9870816445495217 -0.13213066345803556
226924652 0.9876467725481297 -0.1335500531997374
227915372 0.9872524389230427 -0.13312705544616582
228906090 0.9879170908387097 -0.13389107747624157
229896810 0.9874212791339846 -0.13398627247019512
230887528 0.987342520981255 -0.13423675436131213
231878248 0.9873014048156251 -0.13540560694509363
232868968 0.9871061142051971 -0.13594219933795149
233859686 0.9875823057221256 -0.13658365457126476
234850406 0.9872467354573446 -0.13801014765546635
235841122 0.987133372735327 -0.13778277870804387
236831842 0.9867277967354521 -0.13885400775673806
237822562 0.9867555295652329 -0.1392261180731729
238813278 0.9865559908584353 -0.13905113386674928
239803998 0.9865713357326927 -0.14077560870423686
240794718 0.986037851343684 -0.14077541874667382
241785438 0.9859814856745146 -0.14125305298073343
242776158 0.9858012376192179 -0.14249977674857275
243766878 0.9860671326143651 -0.14191010693949277
244757598 0.985431102630138 -0.14240481512376085
245748310 0.9853914291643228 -0.1443916749170456
246739030 0.985455379210104 -0.14402182667789815
247729750 0.9863627264981377 -0.144021126561634
248720470 0.9852757023901463 -0.14563518298134354
249711190 0.9861039682899074 -0.14534857216217537
250701906 0.9856111454655196 -0.14641884844692338
251692626 0.9855527082206532 -0.14708761686978755
252683346 0.9849927137141594 -0.14630627789570586
253674066 0.9857024771928566 -0.14787342883222204
254664786 0.9845915288138006 -0.14813809848427092
255655506 0.9849251992099689 -0.14858355740155016
256646222 0.9845854485902255 -0.14935797679230056
257636942 0.9845539805684989 -0.14948442579606025
258627662 0.984693223247296 -0.15073560001971653
259618382 0.9848943302458018 -0.1506832139947583
260609102 0.9834385877001081 -0.15029965025990583
261599818 0.9848133240244124 -0.1515385113079662
262590538 0.9848281038818066 -0.15310505063086002
263581258 0.9834334892310961 -0.15327952613599044
264571978 0.9845743619832614 -0.1527188793384762
265562698 0.9837400883709041 -0.15368132911628998
266553410 0.9837734817540115 -0.15481142899771913
267544134 0.9836144197421319 -0.15517423642299916
268534854 0.9837251115987106 -0.15574024496130107
269525574 0.9832341159922537 -0.15605255421694142
270516294 0.984159880883048 -0.1561667863612318
271507006 0.9840540223621027 -0.15725935774654562
272497726 0.9827554092170502 -0.15806587165293232
273488446 0.9832210698305118 -0.1582505255572881
274479166 0.9835094770566609 -0.15808933715082943
275469886 0.983981227558382 -0.15863194273574874
276460606 0.9837505442922083 -0.15910230170194722
277451318 0.9825708009472325 -0.1605638518055317
278442038 0.9826766293976801 -0.16047328789980975
279432758 0.9828888083137891 -0.1622588978332661
280423478 0.9833960858011213 -0.16291927756793018
281414198 0.9824722324557853 -0.16071845674326
282404918 0.9831723089878439 -0.16290056289376703
283395638 0.9821334204124544 -0.16363426125526878
284386358 0.9835070106823574 -0.16305105159936595
285377078 0.9826089906042189 -0.16421799023581818
286367798 0.9828499197327499 -0.16577564795813543
287358518 0.9819590389359594 -0.1641274954651854
288349238 0.9824382488057646 -0.16619768381369424
289339958 0.9828808730981771 -0.16714600999150975
290330662 0.9812962274995465 -0.16645592165252812
291321382 0.981584633062056 -0.16813797015989562
292312102 0.982655858059908 -0.16911999061504707
293302822 0.9819332258844274 -0.16794767214972936
294293542 0.9809773140784085 -0.16953046568653746
295284262 0.9832654771362919 -0.17126343411467668
296274982 0.9835243912946493 -0.17059439310381624
297265702 0.981021469880057 -0.17140343331772143
298256422 0.9823851477044281 -0.16946704685362998
299247142 0.9815134511692328 -0.17204757752864747
300237857 0.979151769645489 -0.17092851341582868
301228576 0.9822514831300434 -0.1756317472072169
302219295 0.9819086140117683 -0.17636691263318874
303210014 0.9768463804080799 -0.17081163865942933
304200733 0.9750396927133993 -0.17695636540681917
305191452 0.9752100936454888 -0.1728889771003743
306182171 0.9757295083031723 -0.1761434383889878
307172890 0.9792586603460084 -0.17982485677214946
308163609 0.9783993951221982 -0.18392333586966628
309154328 0.9780120872062802 -0.17687470979545147
310145047 0.9813959652047294 -0.1835635466398509
311135767 0.983803159141831 -0.1786129153143599
312126485 0.9740562916917542 -0.17541109438584868
313117204 0.9795412995277478 -0.18025604296046094
314107924 0.9747328669520434 -0.17554357296488518
315098643 0.9767152940308022 -0.18248192523856877
316089362 0.9707171603326582 -0.17922145927400443
317080081 0.9759737933617519 -0.1838645699469623
318070799 0.9747285644495399 -0.1790276895209593
319061519 0.9762478209063885 -0.18176260728828242
320052237 0.9787580744619185 -0.18452212261539153
321042957 0.9756409838277816 -0.18163325254105775
322033677 0.9762254893404178 -0.18632724462027148
323024393 0.9749956232221455 -0.1837976811096916
324015113 0.9747104731554276 -0.18255735262720074
325005833 0.9784566555928494 -0.18886709914412686
325996551 0.9765945912524469 -0.1874754647077589
326987271 0.9775355345384855 -0.18385774402195262
327977991 0.9729213523407798 -0.18807746687405502
328968709 0.9686364306353527 -0.18792906998099826
329959429 0.9758772565517709 -0.19175102706572958
330950147 0.97651896336344 -0.19118342037356922
331940867 0.9715758307861138 -0.19285483564384148
332931587 0.9688075210685083 -0.19170792705394493
333922305 0.9711202344986695 -0.19382247946495024
334913025 0.9762056690659475 -0.19384297669693068
335903741 0.977269932638144 -0.19424006819761616
336894461 0.9771778719383593 -0.19285794433904235
337885181 0.97612683538645 -0.18931878031212152
338875897 0.9794777103914047 -0.19427637462741112
339866617 0.9732793062329415 -0.19667446536511501
340857337 0.9749098036132665 -0.19327667314470823
341848057 0.9728622070587262 -0.19252761615119865
342838777 0.9710012711401048 -0.1953410352532174
343829497 0.977260217762388 -0.19445448508129795
344820217 0.9777940755625746 -0.19885860384273693
345810929 0.9729140319875302 -0.20000959564075724
346801649 0.9734670623096912 -0.2006419546753024
347792369 0.9707661784456958 -0.19706290187789596
348783089 0.969963153878585 -0.19749519544645622
349773809 0.973765291932665 -0.20198600889766102
350764525 0.9726712207398747 -0.19831180572942822
351755245 0.9763791859843284 -0.20037003502819253
352745965 0.9736138303711637 -0.2017723439459667
353736685 0.9725442150837008 -0.20086066570161729
354727405 0.9771549473525453 -0.20512322597897917
355718125 0.969698138297829 -0.19815075178503824
356708841 0.9726992829689727 -0.2049628780101455
357699561 0.9720375406645497 -0.205624423330142
358690281 0.9723338752602224 -0.20227151714378422
359681001 0.9732077914747679 -0.20341093625965848
360671721 0.9718423119388429 -0.20161400035086458
361662437 0.9683295910746998 -0.2087827216047911
362653157 0.9731078361157516 -0.20777817204115434
363643877 0.9722681223546192 -0.20602918112241414
364634597 0.9763695233380202 -0.2040404972517088
365625317 0.9710849257092075 -0.2100602694698805
366616029 0.9746810383212164 -0.20865657888939051
367606753 0.9696026916093599 -0.21087545631419843
368597473 0.9707842617106502 -0.2188845632082022
369588193 0.9748720281778767 -0.20711059096511653
370578913 0.974239214217149 -0.21521885258855653
371569625 0.9740145673550391 -0.21148439985938283
372560345 0.9724445498645904 -0.21703204421158825
373551065 0.9702868246938293 -0.21059181810182445
374541785 0.9702578746581638 -0.2119507260949385
375532505 0.9689684132335572 -0.21404429188997348
376523225 0.968226833623064 -0.21066227570159482
377513937 0.9695703541285636 -0.21487039993346657
378504657 0.9720306482761116 -0.21528752317803043
379495377 0.9696581223553171 -0.21274349370253728
380486097 0.9714341915487803 -0.21719707074487513
381476817 0.9686601422845852 -0.2226070941940588
382467537 0.9715205886839992 -0.21636257603414402
383458257 0.9714554357081665 -0.218458028929716
384448977 0.9710239387900128 -0.21867002078524417
385439697 0.9665943551252071 -0.22073141094402998
386430417 0.9667313483028144 -0.21932683910405182
387421137 0.966739542859142 -0.22388410983755566
388411857 0.9668257310125775 -0.22094777150614842
389402577 0.9689882934155573 -0.22053134262205154
390393281 0.9688295671559417 -0.22569591116426646
391384001 0.9681496108580149 -0.2228626251064454
392374721 0.9709141402641819 -0.22231024757960538
393365441 0.9676981885595007 -0.2240510101079904
394356161 0.9659760744064662 -0.22720521074013975
395346881 0.9672411696414438 -0.22360495406120345
396337601 0.9696823007632075 -0.22741989501286558
397328321 0.96546205043913 -0.227000625304702
398319041 0.9685896968546692 -0.2266151218104786
