# Hz S RI R 50
50000 -0.48314148433023385 -0.8598757262495194
1040719 -0.9966438805406025 -0.05741176103545524
2031438 -0.9978993904492083 -0.028280902120251483
3022157 -0.998449863579466 -0.017677672140013163
4012876 -0.9984088438313838 -0.011520028638835372
5003595 -0.9986448982695713 -0.007751560032821471
5994314 -0.9989980518037984 -0.004840866283069231
6985033 -0.998753649050832 -0.002823720254444554
7975752 -0.9986359689587893 -0.0004633611836673121
8966471 -0.9986913319520141 0.0011418224503623824
9957190 -0.9988333995767226 0.002642691696866817
10947910 -0.9985705827639497 0.003751158049101567
11938628 -0.9986618687240318 0.005477513151466954
12929347 -0.9988248165635929 0.006438564983576867
13920067 -0.9985691425520812 0.007623624709712675
14910786 -0.9984605890206841 0.008904760200148956
15901505 -0.9985896970766213 0.0097327726850595
16892224 -0.9984298428317349 0.01116417532168195
17882942 -0.9982538729631439 0.01218439957647485
18873662 -0.9984901342673562 0.013425281713251979
19864380 -0.9982719931317398 0.013807838580318714
20855100 -0.9983908099955291 0.015227343109691111
21845820 -0.9982036687945919 0.016376536817727216
22836536 -0.9984592335658379 0.01734624549579653
23827256 -0.9984092879684536 0.017957600272954538
24817976 -0.998164989114125 0.01897718783410469
25808694 -0.9982250138278643 0.020159716411220885
26799414 -0.9980224593822521 0.020561791411667994
27790134 -0.9979966014580892 0.02154844477790166
28780852 -0.9980987057047995 0.022750376180613516
29771572 -0.9979366821232302 0.023747525849231586
30762290 -0.9978343130455367 0.024554111082771658
31753010 -0.9978957825764642 0.025675187783939294
32743730 -0.9979317828619496 0.026386642513259492
33734448 -0.9979035321728088 0.027500398516868578
34725168 -0.9977101234171156 0.028384646213948556
35715884 -0.9979397310699109 0.029270894410617688
36706604 -0.9974558881023984 0.02994283360686893
37697324 -0.9976901860588717 0.030191620695675124
38688040 -0.9973741016804981 0.031872945430063464
39678760 -0.9970071300749275 0.03233222049502187
40669480 -0.9975395125657558 0.03363593380179523
41660200 -0.9976720264470218 0.034628079147414434
42650920 -0.9971426011355776 0.035412961494396315
43641640 -0.9959839502890488 0.036319381610305346
44632360 -0.9966330764508473 0.0365558608554068
45623072 -0.9972560237516712 0.03853590387813839
46613792 -0.9965600113052617 0.038529144536681534
47604512 -0.9967790679425127 0.03939622132982049
48595232 -0.9964214064381782 0.04082133847742822
49585952 -0.9965289954137677 0.0414449271822545
50576668 -0.996653455065444 0.04194353362171118
51567388 -0.9972051060273305 0.042710468600910934
52558108 -0.9969381696453674 0.0440948181770737
53548828 -0.9961922969224154 0.044763828682241644
54539548 -0.996306036166104 0.04542834073259366
55530268 -0.9974452037329665 0.04648180529728591
56520984 -0.9956628802405909 0.046992392248324445
57511704 -0.9959473824319598 0.04700154908149986
58502424 -0.9952562971229933 0.04955261596846729
59493144 -0.995996155326046 0.04957699755524566
60483864 -0.9959844954884507 0.05094125132311985
61474580 -0.9941621365702235 0.05058087119003097
62465300 -0.9956210772324515 0.05201976374916157
63456020 -0.9973197626552752 0.05243620373594653
64446740 -0.9966826124524821 0.05319309670328725
65437460 -0.9959649317321642 0.054300061021191295
66428172 -0.9961695945184559 0.05471469942901542
67418896 -0.994674932627773 0.05724415286522717
68409616 -0.9954076203419385 0.056845478336380414
69400336 -0.9949025229742235 0.058501861440522614
70391056 -0.9943185164816288 0.058033600876431564
71381768 -0.9962911723679034 0.058374915589090616
72372488 -0.9957206236333014 0.060247395168649236
73363208 -0.9950413455051755 0.061595363917140336
74353928 -0.9948422100917684 0.06099568855916796
75344648 -0.993755595543246 0.062044192356856154
76335368 -0.9952459294952325 0.06390936496292882
77326080 -0.9945082774189998 0.06354056098608726
78316800 -0.9952020104103569 0.06444041381617767
79307520 -0.9951004573885518 0.06553241594776987
80298240 -0.9948826587312939 0.0660534233955187
81288960 -0.9948195500977903 0.06735768717096702
82279680 -0.9947913921392975 0.06812353160366025
83270400 -0.9947198291155182 0.06893677473539732
84261120 -0.9951363709606345 0.06677005187453215
85251840 -0.9947948056032307 0.06984037099051145
86242560 -0.9979336350544282 0.07177903004887239
87233280 -0.9960993743405633 0.06965912360776497
88224000 -0.994401394061395 0.07270988127373854
89214720 -0.9921705267170433 0.07382618478610278
90205424 -0.9947212322404282 0.0738880808802588
91196144 -0.9920734024797103 0.07644037133265237
92186864 -0.99322931221749 0.07627751527076523
93177584 -0.9933115194232924 0.07673829490741374
94168304 -0.9943686687357465 0.07772466294084264
95159024 -0.9951124721908826 0.07958030675594649
96149744 -0.9919707512046119 0.07892467313957358
97140464 -0.9922509861677286 0.08034845058612197
98131184 -0.9919388912657596 0.08193847568194414
99121904 -0.9940739083876561 0.07961558333202051
100112619 -0.9933687768031791 0.08264912212189439
101103338 -0.9933927778091194 0.08311785885002658
102094057 -0.9934133636666022 0.08422665301670162
103084776 -0.9937307328459437 0.08464651085578971
104075495 -0.9935113727743872 0.08549353027438
105066214 -0.9930804917524947 0.08746364668023966
106056933 -0.9939029040040884 0.08704667961142033
107047652 -0.9931071890998563 0.08793264976276895
108038371 -0.9926451052832682 0.0892209871379704
109029090 -0.9926865510945847 0.08991753653681582
110019809 -0.9925352383498834 0.09017268292174307
111010529 -0.9922766321050576 0.09103872114344688
112001247 -0.9930065067766796 0.09289478770114135
112991966 -0.9923704751928052 0.09302059067126826
113982686 -0.9927292260691495 0.0939421863100484
114973405 -0.9922177051401989 0.09451402262122013
115964124 -0.9922196681610712 0.09465463291463912
116954843 -0.9924560873416737 0.0967801065484998
117945561 -0.9921488506578132 0.09727920375150514
118936281 -0.992614229164433 0.09785446152226107
119926999 -0.9920902902965418 0.09814307600308231
120917719 -0.9925321535349101 0.0998066268506649
121908439 -0.9925340603081808 0.1002164080432731
122899155 -0.9916312892474209 0.10104755054410146
123889875 -0.9915803817004067 0.10194806710497634
124880595 -0.9916142387902062 0.10244777469267187
125871313 -0.9916576176176478 0.10317346622653503
126862033 -0.9916691934066842 0.10422981754657198
127852753 -0.9917916680132653 0.10479642663864731
128843471 -0.9917044041819288 0.10579944391839306
129834191 -0.9913234404498604 0.10633833734157423
130824909 -0.9913875703925462 0.10738222978141208
131815629 -0.9917555424343286 0.10791192848665287
132806349 -0.9911382467127114 0.10913915644289988
133797067 -0.9904266648634369 0.11013149493777048
134787787 -0.991091807130678 0.11030654325483223
135778503 -0.9909806095458565 0.11172249053944797
136769223 -0.9906471442443966 0.1119978064302173
137759943 -0.9906504483315605 0.11239819500420983
138750659 -0.9906905913460682 0.11311169834459454
139741379 -0.990421281409102 0.1139432981086663
140732099 -0.9915366434914095 0.11475606534802538
141722819 -0.9908574877154059 0.11608638991568647
142713539 -0.9911203387946766 0.11702374396626661
143704259 -0.9901380451473145 0.11747657933643399
144694979 -0.9901859262941822 0.11811332264917472
145685691 -0.9903559326583936 0.11901328560881352
146676411 -0.9900146714905392 0.12002973036115797
147667131 -0.9905509211285506 0.12079908331725975
148657851 -0.9907897886145265 0.12155177666915544
149648571 -0.9909241085725571 0.12209699636029504
150639287 -0.9898992809929268 0.1226956512552236
151630007 -0.9897247736312437 0.12392752624201675
152620727 -0.989108114226188 0.12443425822462008
153611447 -0.9898421817472285 0.1253949507330231
154602167 -0.990933880565474 0.12538855505534477
155592887 -0.9894468116633891 0.1271137758559979
156583603 -0.990022605830324 0.12737585608249616
157574323 -0.9889635071648818 0.12814681159623065
158565043 -0.988119206126619 0.130316563774364
159555763 -0.9888577111375236 0.12997858491419473
160546483 -0.9889097114227534 0.1314233109366093
161537199 -0.9900433129076983 0.13218062541683556
162527919 -0.9885701065901519 0.1324913137287316
163518639 -0.9884955946652394 0.1330169034279113
164509359 -0.9888982570704953 0.13427484126780373
165500079 -0.9889661955143567 0.13450188017845532
166490791 -0.9882671660951767 0.1352451854918091
167481515 -0.9879870987018889 0.1357411645114566
168472235 -0.988246665845321 0.13701813862963996
169462955 -0.9879384615883121 0.13710642416863994
170453675 -0.9875294648691976 0.1382777181488719
171444387 -0.987869278300719 0.13890525119476074
172435107 -0.9867235612181423 0.14021502127179244
173425827 -0.9881281092609547 0.1412326434669811
174416547 -0.9870399435885175 0.14158889452912554
175407267 -0.9880125646399174 0.14273221958392487
176397987 -0.9873214441267454 0.1428735211388772
177388699 -0.9872606046756831 0.14411244507184254
178379419 -0.987483551135868 0.144808934914532
179370139 -0.9883144257296278 0.14621456563831253
180360859 -0.9870271353903595 0.1465337224299465
181351579 -0.9869555639788632 0.14694955318625763
182342299 -0.9873309925108306 0.14806791877045739
183333019 -0.9860663032846174 0.14864144462324333
184323739 -0.9868633513610366 0.1493352767351829
185314459 -0.9870691223232804 0.1519088227643279
186305179 -0.9866410040690927 0.15100391838093818
187295899 -0.9867900115268352 0.15222827453921267
188286619 -0.9856812016839044 0.1534452610480659
189277339 -0.9865210879046367 0.15390532073638039
190268043 -0.9860110606153226 0.15403900939833734
191258763 -0.9854037273519561 0.15489659619528376
192249483 -0.9864050026095119 0.15573457312136527
193240203 -0.9859127764429567 0.1574757271973208
194230923 -0.9857103359254493 0.15778887281990706
195221643 -0.9857047393864931 0.15845663607201
196212363 -0.9853829552532294 0.15939336039466898
197203083 -0.9854498026266729 0.16029962496404399
198193803 -0.9859887595943999 0.160889005715543
199184523 -0.9863713035773829 0.1611569728160735
200175238 -0.9847345455505835 0.1623454450828373
201165957 -0.983765072422004 0.16426220009012765
202156676 -0.9847019185778606 0.16335697114805944
203147395 -0.9846225716962188 0.16452671202433242
204138114 -0.9850321980745536 0.16508874311007074
205128833 -0.9842061122918032 0.16615046065293929
206119552 -0.9843590488513043 0.16693260492704257
207110271 -0.9845260210303493 0.16812383109783807
208100990 -0.9837094802970002 0.16847166558893448
209091709 -0.9840719668822691 0.1685048798264947
210082428 -0.9845075285823015 0.17000268909997437
211073148 -0.9858613987364506 0.1706362866469866
212063866 -0.9842068086229788 0.17116929884795937
213054585 -0.9842141489426074 0.17196347164044717
214045305 -0.9840384996765125 0.1736557978045076
215036024 -0.9834307936140656 0.17406735678578192
216026743 -0.9834521896580849 0.17518369703935066
217017462 -0.9829438576495656 0.17584705671806425
218008180 -0.9827375294006491 0.17709103036535714
218998900 -0.9830449158326523 0.17628972631123635
219989618 -0.9828995272139357 0.1784489937297826
220980338 -0.9824266152165683 0.17864994254515962
221971058 -0.9827334673289383 0.17912090117301793
222961774 -0.9822336436583815 0.18054470455922744
223952494 -0.9834121268127475 0.18109508351345172
224943214 -0.9822984123233186 0.18229491528825864
225933932 -0.9827208478476135 0.18232986014827934
226924652 -0.9822665020433127 0.1838434432195522
227915372 -0.9819558679092986 0.18452610499078645
228906090 -0.9818210359851895 0.18454525360594207
229896810 -0.9823413678994934 0.18607422317309047
230887528 -0.981446090869969 0.18668054260743683
231878248 -0.9820858494023166 0.18763571239398344
232868968 -0.9811635037787516 0.18822046814540572
233859686 -0.9809753360275585 0.1888696520263894
234850406 -0.9812777707542536 0.19047776946347453
235841122 -0.980859187492877 0.19037940976645076
236831842 -0.9809772246731115 0.1927098524482508
237822562 -0.9807852842040369 0.19218344633739998
238813278 -0.9807168343028779 0.19268886474883942
239803998 -0.9787971571422928 0.19427494551982544
240794718 -0.9803115535801673 0.19443554059780843
241785438 -0.9795104858193437 0.1954380342828447
242776158 -0.9811261312933904 0.19608237954585078
243766878 -0.979698519371803 0.1976805762353991
244757598 -0.9804359387928318 0.1979966761103918
245748310 -0.9793208179524612 0.1989855361302001
246739030 -0.9807995123366577 0.20005195386967944
247729750 -0.9789464498034086 0.20036387030121666
248720470 -0.9792869388501992 0.20034309872048067
249711190 -0.979257432766637 0.20178666902232292
250701906 -0.9794989791638109 0.20238903334406294
251692626 -0.9792222332472417 0.20318393447858601
252683346 -0.978843446385045 0.20382815016636435
253674066 -0.9790073853270584 0.20564263055303578
254664786 -0.9788054397075182 0.2058692886815927
255655506 -0.9780831609835479 0.20662332523330276
256646222 -0.9785763341361817 0.20744869602102126
257636942 -0.9779822837201836 0.20804674051590147
258627662 -0.9786018493553761 0.20858370847523502
259618382 -0.9772280520359221 0.208785606919778
260609102 -0.9778713683684405 0.21043933040074117
261599818 -0.9775772096324155 0.21130634388030528
262590538 -0.9773154995052492 0.2114124423364653
263581258 -0.9777089691004133 0.21240814195105073
264571978 -0.9768302150223147 0.2130829175010982
265562698 -0.9780577360140327 0.21391391807450896
266553410 -0.9768157857399932 0.2155764501707425
267544134 -0.9775403029561192 0.21511927144556095
268534854 -0.9772388882464749 0.21683160440618385
269525574 -0.9767591982850407 0.21691047891874263
270516294 -0.9766657041162031 0.21857586906639095
271507006 -0.9762502277682522 0.21839954652000082
272497726 -0.9775111582751362 0.21932729685191182
273488446 -0.9758465286316492 0.2204172515178872
274479166 -0.9772065553225912 0.22170366157725005
275469886 -0.976340643241856 0.22152709001800575
276460606 -0.9758235325079989 0.22263377750353092
277451318 -0.9757227003917751 0.2241337571963713
278442038 -0.9752097484642653 0.2235694402602289
279432758 -0.9748506095030584 0.22539384908940246
280423478 -0.9766914537186681 0.22601653607092495
281414198 -0.9757137344558526 0.22696459226922866
282404918 -0.9749464494915552 0.22727791081147256
283395638 -0.9749586848099094 0.2294228602164659
284386358 -0.9752421297734231 0.22857862036831045
285377078 -0.9746797336331967 0.23004686303205168
286367798 -0.9745889069264461 0.2304207942931877
287358518 -0.9743693202958498 0.2307924936347988
288349238 -0.9738880680035656 0.23182763109069426
289339958 -0.9733534351985059 0.23293929049388207
290330662 -0.9735987931944151 0.23471245942771254
291321382 -0.9731750574342838 0.23492310832119573
292312102 -0.9731402613904447 0.2354762608874651
293302822 -0.9737162949161673 0.2360149729622557
294293542 -0.9730802088843568 0.2367772722334247
295284262 -0.9731605622357231 0.23683065723876195
296274982 -0.9728096118615893 0.23898739663662877
297265702 -0.9739729911971736 0.23829028368967836
298256422 -0.9716857012306861 0.23915592735605481
299247142 -0.9719011987503828 0.24024657957199896
300237857 -0.9631577598666886 0.24293154301482378
301228576 -0.9650196079080589 0.24116627054972395
302219295 -0.9689120778624936 0.24275562691508312
303210014 -0.9688295369516198 0.24225654809477326
304200733 -0.9650136336507693 0.2427207081039029
305191452 -0.97340167272451 0.24689672178565736
306182171 -0.9665652025667738 0.24396289916750197
307172890 -0.9691176274193654 0.24436184679638834
308163609 -0.9692560127118435 0.24910384285837142
309154328 -0.9719273288662418 0.25086336291814887
310145047 -0.966400188478576 0.2446058553094064
311135767 -0.9659079289589797 0.2489612117266894
312126485 -0.9631146369194936 0.24893349746000656
313117204 -0.9673948531699663 0.25321449431291776
314107924 -0.9659519635267456 0.2565632067323255
315098643 -0.9659349388905324 0.25639603056197835
316089362 -0.9633032455598184 0.2523228241104419
317080081 -0.9654349814094253 0.2574677773947558
318070799 -0.964357593676138 0.25823060156891126
319061519 -0.9678131291344771 0.2542685440129965
320052237 -0.965183537060449 0.2579538141525902
321042957 -0.965904217137044 0.2576301963653241
322033677 -0.9638931403214589 0.25657675784066036
323024393 -0.9626501870877812 0.257542701031373
324015113 -0.962559045896231 0.2609102154721405
325005833 -0.9645314351311838 0.26639355931286496
325996551 -0.9606764903782864 0.25707020919073187
326987271 -0.9640218116915835 0.2640276420393714
327977991 -0.9621688309058359 0.26444999234699224
328968709 -0.957171754106916 0.2663903513874454
329959429 -0.9662549027211741 0.2648777812672513
330950147 -0.9718523352950558 0.267884716902129
331940867 -0.9623957933077769 0.2676289429894869
332931587 -0.9602993062562893 0.2664341942462268
333922305 -0.9651163766516322 0.26310416232113476
334913025 -0.962886054604016 0.27041061486797474
335903741 -0.962548708045651 0.27196584897020526
336894461 -0.9632674875516755 0.26782607821129933
337885181 -0.9597255757319588 0.27418436715898825
338875897 -0.963926900422181 0.27055871801868064
339866617 -0.9681537730534776 0.2719413407781392
340857337 -0.9608158869939413 0.2769749885845009
341848057 -0.9673632336178687 0.2727393220951293
342838777 -0.9640032420644475 0.2766354682522424
343829497 -0.9582969419323537 0.27217989766114964
344820217 -0.9645478003532395 0.2719413240038563
345810929 -0.9640864873045882 0.2755250978378477
346801649 -0.9588601078505052 0.2793741004625047
347792369 -0.9620320365602038 0.2811693902961408
348783089 -0.9643319202220813 0.27865363993069525
349773809 -0.9611539997435081 0.2826301111345466
350764525 -0.9547047119353844 0.2803302395756729
351755245 -0.96278807621854 0.2816980000664323
352745965 -0.9615232723058418 0.28076718212158847
353736685 -0.9592711678308888 0.28448304619616593
354727405 -0.9633580767156428 0.28340798484135077
355718125 -0.9604826958391547 0.28531607575231177
356708841 -0.9548328458740569 0.28443582716272603
357699561 -0.9590859153231881 0.2907237687188527
358690281 -0.9615704356237286 0.28850943574542603
359681001 -0.9583582747002802 0.2899065632595677
360671721 -0.9607376313219568 0.2889252622614752
361662437 -0.9603005848784882 0.2889677175646897
362653157 -0.9635121324457611 0.2933766059081724
363643877 -0.9602977626085066 0.2944631848555786
364634597 -0.9632547116235789 0.293783904956895
365625317 -0.9599347403690942 0.2950717061013535
366616029 -0.9546523995464282 0.2899378725457062
367606753 -0.9596373450054911 0.2947605453030399
368597473 -0.9551688631124865 0.29927133493354113
369588193 -0.9550893886596691 0.29316189158905176
370578913 -0.9623354942214366 0.3008101969198646
371569625 -0.9570039842079341 0.29779424332511145
372560345 -0.9556287803209694 0.299076931008529
373551065 -0.9577055688333682 0.29903967175623963
374541785 -0.9554700886480905 0.3026159541292398
375532505 -0.9577658805007807 0.3036256820041098
376523225 -0.9578400010376837 0.3042971118963247
377513937 -0.953538589549738 0.30345528489476253
378504657 -0.9560449774127714 0.3020136348910669
379495377 -0.9543652416973318 0.3055415668135343
380486097 -0.955401471956018 0.30241953989645803
381476817 -0.9548275099868963 0.30471218224515795
382467537 -0.9560299355963525 0.3070165808072065
383458257 -0.9515458309440168 0.3107238461158532
384448977 -0.9545360033877982 0.3081811045798963
385439697 -0.9533450043273559 0.30906649481250253
386430417 -0.9547979636353578 0.3105346865124436
387421137 -0.9546107308958699 0.30798459814634443
388411857 -0.9532599898449382 0.31134939241774706
389402577 -0.9541740837757615 0.31110982585000146
390393281 -0.9535867770718247 0.3104008123438365
391384001 -0.9550368751312143 0.3150036816943055
392374721 -0.9521295734064575 0.3160762969429787
393365441 -0.9538337107297407 0.3164190820060741
394356161 -0.9519821900843901 0.3173545523810802
395346881 -0.9503893824454706 0.3136304415867376
396337601 -0.950195919458392 0.31620275230168543
397328321 -0.9519788911952514 0.3147864492230378
398319041 -0.9501771359384241 0.3174799626339568
399309761 -0.951186626740873 0.32161116257088773
